!Agilent Technologies,E5071C,MY46101151,A.11.34
!Date: Mon Sep 17 23:28:35 2018
!Data & Calibration Information:
!Freq	S11:SOLT2(ON)	S21:SOLT2(ON)	S12:SOLT2(ON)	S22:SOLT2(ON)
!PortZ  Port1:50+j0    Port2:50+j0
!Above PortZ is port z conversion or system Z0 setting when saving the data.
!When reading, reference impedance value at option line is always used.
# Hz S dB R 50
100000	-6.481074e-001	2.527038e+001	-2.504435e+001	2.376834e+001	-2.514822e+001	2.367219e+001	-4.899632e-001	2.541521e+001
22599500	-5.006095e-001	-2.020657e+000	-2.500757e+001	-5.996577e-001	-2.504156e+001	-3.713028e-001	-4.957131e-001	-2.149420e+000
45099000	-5.057923e-001	-3.994185e+000	-2.503068e+001	-1.178719e+000	-2.502838e+001	-1.114243e+000	-5.013349e-001	-4.245463e+000
67598500	-5.057580e-001	-6.009252e+000	-2.503011e+001	-1.766721e+000	-2.502874e+001	-1.897196e+000	-5.098681e-001	-6.387969e+000
90098000	-5.094046e-001	-7.984391e+000	-2.499408e+001	-2.508785e+000	-2.502621e+001	-2.533323e+000	-5.140690e-001	-8.454876e+000
112597500	-5.222011e-001	-9.932068e+000	-2.497746e+001	-3.096194e+000	-2.499683e+001	-2.969167e+000	-5.220865e-001	-1.054440e+001
135097000	-5.209074e-001	-1.189042e+001	-2.493209e+001	-3.644088e+000	-2.495438e+001	-3.654827e+000	-5.245089e-001	-1.261991e+001
157596500	-5.254024e-001	-1.386431e+001	-2.491132e+001	-4.240252e+000	-2.490823e+001	-4.211041e+000	-5.238872e-001	-1.470041e+001
180096000	-5.287056e-001	-1.582758e+001	-2.487870e+001	-4.856632e+000	-2.487012e+001	-4.848954e+000	-5.331408e-001	-1.677372e+001
202595500	-5.343301e-001	-1.778404e+001	-2.481630e+001	-5.458568e+000	-2.482508e+001	-5.569884e+000	-5.408917e-001	-1.886873e+001
225095000	-5.408628e-001	-1.977423e+001	-2.476172e+001	-6.203900e+000	-2.475762e+001	-6.226713e+000	-5.473316e-001	-2.092417e+001
247594500	-5.400007e-001	-2.169294e+001	-2.470410e+001	-6.987854e+000	-2.471591e+001	-6.971053e+000	-5.500893e-001	-2.299234e+001
270094000	-5.430203e-001	-2.365636e+001	-2.464786e+001	-7.686972e+000	-2.466104e+001	-7.677441e+000	-5.562046e-001	-2.511195e+001
292593500	-5.509378e-001	-2.560011e+001	-2.457966e+001	-8.529064e+000	-2.459863e+001	-8.456917e+000	-5.633022e-001	-2.716889e+001
315093000	-5.560787e-001	-2.756218e+001	-2.450904e+001	-9.240433e+000	-2.452285e+001	-9.193732e+000	-5.635923e-001	-2.926977e+001
337592500	-5.637801e-001	-2.954122e+001	-2.442832e+001	-1.001350e+001	-2.444435e+001	-1.000997e+001	-5.739900e-001	-3.133288e+001
360092000	-5.674005e-001	-3.147921e+001	-2.434298e+001	-1.087798e+001	-2.437256e+001	-1.086032e+001	-5.753067e-001	-3.343802e+001
382591500	-5.704244e-001	-3.343417e+001	-2.427189e+001	-1.171921e+001	-2.427828e+001	-1.180433e+001	-5.850456e-001	-3.552601e+001
405091000	-5.791292e-001	-3.539007e+001	-2.418304e+001	-1.256640e+001	-2.419020e+001	-1.262220e+001	-5.920547e-001	-3.761396e+001
427590500	-5.820206e-001	-3.736362e+001	-2.410437e+001	-1.343130e+001	-2.410167e+001	-1.347736e+001	-5.956103e-001	-3.972045e+001
450090000	-5.833517e-001	-3.928739e+001	-2.401257e+001	-1.445794e+001	-2.401899e+001	-1.443598e+001	-5.949769e-001	-4.180248e+001
472589500	-5.924317e-001	-4.125065e+001	-2.391884e+001	-1.534784e+001	-2.393728e+001	-1.533312e+001	-6.120777e-001	-4.389719e+001
495089000	-5.934269e-001	-4.318854e+001	-2.382992e+001	-1.634819e+001	-2.384276e+001	-1.636654e+001	-6.179634e-001	-4.600337e+001
517588500	-6.033385e-001	-4.516983e+001	-2.374253e+001	-1.729105e+001	-2.375514e+001	-1.735091e+001	-6.208027e-001	-4.808298e+001
540088000	-6.090750e-001	-4.708130e+001	-2.364544e+001	-1.835018e+001	-2.365988e+001	-1.833356e+001	-6.273716e-001	-5.018183e+001
562587500	-6.168226e-001	-4.902562e+001	-2.356070e+001	-1.939127e+001	-2.357071e+001	-1.944989e+001	-6.326297e-001	-5.230344e+001
585087000	-6.167891e-001	-5.101543e+001	-2.346712e+001	-2.045428e+001	-2.346900e+001	-2.049067e+001	-6.410311e-001	-5.441955e+001
607586500	-6.230253e-001	-5.295683e+001	-2.335823e+001	-2.155229e+001	-2.336724e+001	-2.160933e+001	-6.457154e-001	-5.651120e+001
630086000	-6.240332e-001	-5.490210e+001	-2.325660e+001	-2.257114e+001	-2.326962e+001	-2.251700e+001	-6.524596e-001	-5.861005e+001
652585500	-6.348454e-001	-5.684280e+001	-2.314648e+001	-2.359194e+001	-2.315159e+001	-2.355409e+001	-6.591714e-001	-6.071294e+001
675085000	-6.355288e-001	-5.879769e+001	-2.304441e+001	-2.480206e+001	-2.303499e+001	-2.489222e+001	-6.634423e-001	-6.280226e+001
697584500	-6.389584e-001	-6.074984e+001	-2.292112e+001	-2.597223e+001	-2.291954e+001	-2.607911e+001	-6.686355e-001	-6.490502e+001
720084000	-6.441967e-001	-6.270016e+001	-2.280476e+001	-2.717932e+001	-2.282213e+001	-2.734110e+001	-6.765003e-001	-6.703027e+001
742583500	-6.446262e-001	-6.460245e+001	-2.269284e+001	-2.841790e+001	-2.270582e+001	-2.848505e+001	-6.809907e-001	-6.913538e+001
765083000	-6.577100e-001	-6.653340e+001	-2.259714e+001	-2.972666e+001	-2.261284e+001	-2.981688e+001	-6.960514e-001	-7.126618e+001
787582500	-6.620617e-001	-6.856994e+001	-2.247808e+001	-3.110319e+001	-2.249048e+001	-3.104634e+001	-7.020919e-001	-7.342820e+001
810082000	-6.695898e-001	-7.052701e+001	-2.237301e+001	-3.249813e+001	-2.237481e+001	-3.245555e+001	-7.116619e-001	-7.559407e+001
832581500	-6.750449e-001	-7.244878e+001	-2.226351e+001	-3.378518e+001	-2.227554e+001	-3.380298e+001	-7.185917e-001	-7.775536e+001
855081000	-6.802219e-001	-7.442751e+001	-2.216364e+001	-3.510329e+001	-2.215500e+001	-3.520425e+001	-7.203598e-001	-7.990589e+001
877580500	-6.828394e-001	-7.636263e+001	-2.203924e+001	-3.666700e+001	-2.205087e+001	-3.662941e+001	-7.302381e-001	-8.202083e+001
900080000	-6.938740e-001	-7.829238e+001	-2.194170e+001	-3.806131e+001	-2.196349e+001	-3.811408e+001	-7.393004e-001	-8.415504e+001
922579500	-6.935525e-001	-8.024046e+001	-2.185163e+001	-3.941909e+001	-2.185717e+001	-3.949551e+001	-7.428610e-001	-8.630382e+001
945079000	-6.960053e-001	-8.224462e+001	-2.176964e+001	-4.081235e+001	-2.175946e+001	-4.087178e+001	-7.494544e-001	-8.843797e+001
967578500	-6.937152e-001	-8.415887e+001	-2.165728e+001	-4.214899e+001	-2.168070e+001	-4.219188e+001	-7.631475e-001	-9.055869e+001
990078000	-7.115319e-001	-8.612847e+001	-2.155988e+001	-4.366807e+001	-2.156359e+001	-4.362167e+001	-7.690041e-001	-9.276627e+001
1012577500	-7.178106e-001	-8.802929e+001	-2.143660e+001	-4.506552e+001	-2.144564e+001	-4.506186e+001	-7.785309e-001	-9.494022e+001
1035077000	-7.322122e-001	-9.000123e+001	-2.132977e+001	-4.648072e+001	-2.133957e+001	-4.662508e+001	-7.838286e-001	-9.716667e+001
1057576500	-7.266460e-001	-9.197057e+001	-2.121444e+001	-4.804081e+001	-2.122087e+001	-4.810317e+001	-7.911646e-001	-9.928301e+001
1080076000	-7.358962e-001	-9.395811e+001	-2.111137e+001	-4.957894e+001	-2.111580e+001	-4.956022e+001	-8.038967e-001	-1.015198e+002
1102575500	-7.400807e-001	-9.593951e+001	-2.100527e+001	-5.120602e+001	-2.101004e+001	-5.124703e+001	-8.070887e-001	-1.037008e+002
1125075000	-7.461772e-001	-9.787488e+001	-2.089067e+001	-5.285036e+001	-2.090007e+001	-5.289824e+001	-8.143276e-001	-1.059071e+002
1147574500	-7.565023e-001	-9.982311e+001	-2.081060e+001	-5.433911e+001	-2.080262e+001	-5.448389e+001	-8.254200e-001	-1.080693e+002
1170074000	-7.604242e-001	-1.017968e+002	-2.070793e+001	-5.601819e+001	-2.071781e+001	-5.602546e+001	-8.362880e-001	-1.102859e+002
1192573500	-7.594464e-001	-1.037542e+002	-2.062301e+001	-5.752596e+001	-2.062005e+001	-5.758762e+001	-8.439785e-001	-1.124953e+002
1215073000	-7.627810e-001	-1.056989e+002	-2.050880e+001	-5.921847e+001	-2.051945e+001	-5.920350e+001	-8.563762e-001	-1.147306e+002
1237572500	-7.688735e-001	-1.075898e+002	-2.039613e+001	-6.075871e+001	-2.040972e+001	-6.080798e+001	-8.670140e-001	-1.169281e+002
1260072000	-7.761182e-001	-1.095205e+002	-2.030110e+001	-6.249693e+001	-2.031814e+001	-6.245217e+001	-8.749115e-001	-1.191095e+002
1282571500	-7.849152e-001	-1.115263e+002	-2.018727e+001	-6.409536e+001	-2.019798e+001	-6.409910e+001	-8.853812e-001	-1.213685e+002
1305071000	-7.875595e-001	-1.134698e+002	-2.007576e+001	-6.594580e+001	-2.009804e+001	-6.588357e+001	-8.942002e-001	-1.236477e+002
1327570500	-7.923096e-001	-1.153405e+002	-1.998590e+001	-6.772905e+001	-2.000187e+001	-6.775195e+001	-9.057199e-001	-1.258859e+002
1350070000	-7.983323e-001	-1.173289e+002	-1.990333e+001	-6.954184e+001	-1.992318e+001	-6.964576e+001	-9.212100e-001	-1.280816e+002
1372569500	-8.045801e-001	-1.192765e+002	-1.983958e+001	-7.130011e+001	-1.984848e+001	-7.139737e+001	-9.296146e-001	-1.303024e+002
1395069000	-8.055632e-001	-1.211600e+002	-1.976282e+001	-7.294086e+001	-1.976894e+001	-7.307072e+001	-9.305959e-001	-1.325582e+002
1417568500	-8.126357e-001	-1.231078e+002	-1.967819e+001	-7.461224e+001	-1.968342e+001	-7.472399e+001	-9.432596e-001	-1.347612e+002
1440068000	-8.212295e-001	-1.251320e+002	-1.959318e+001	-7.641392e+001	-1.960257e+001	-7.640847e+001	-9.528906e-001	-1.370793e+002
1462567500	-8.142614e-001	-1.269967e+002	-1.950126e+001	-7.802059e+001	-1.951800e+001	-7.814825e+001	-9.602902e-001	-1.393315e+002
1485067000	-8.305580e-001	-1.289394e+002	-1.941778e+001	-7.968892e+001	-1.942473e+001	-7.989228e+001	-9.690682e-001	-1.416324e+002
1507566500	-8.309492e-001	-1.308845e+002	-1.932963e+001	-8.146071e+001	-1.935050e+001	-8.158744e+001	-9.811789e-001	-1.439472e+002
1530066000	-8.433421e-001	-1.328417e+002	-1.923715e+001	-8.315706e+001	-1.925280e+001	-8.326049e+001	-9.972659e-001	-1.463060e+002
1552565500	-8.504082e-001	-1.348140e+002	-1.913478e+001	-8.496339e+001	-1.914301e+001	-8.495774e+001	-1.012329e+000	-1.485725e+002
1575065000	-8.547448e-001	-1.367645e+002	-1.901922e+001	-8.682258e+001	-1.902426e+001	-8.682412e+001	-1.021386e+000	-1.509113e+002
1597564500	-8.639232e-001	-1.386754e+002	-1.890458e+001	-8.879242e+001	-1.891027e+001	-8.892892e+001	-1.035255e+000	-1.532489e+002
1620064000	-8.714925e-001	-1.406072e+002	-1.883656e+001	-9.095347e+001	-1.884191e+001	-9.107268e+001	-1.057727e+000	-1.554889e+002
1642563500	-8.710302e-001	-1.425070e+002	-1.879564e+001	-9.282423e+001	-1.881200e+001	-9.293458e+001	-1.067584e+000	-1.577590e+002
1665063000	-8.741783e-001	-1.444090e+002	-1.870823e+001	-9.456866e+001	-1.871454e+001	-9.472913e+001	-1.076987e+000	-1.600603e+002
1687562500	-8.808642e-001	-1.463807e+002	-1.863847e+001	-9.667299e+001	-1.864469e+001	-9.674489e+001	-1.094546e+000	-1.623194e+002
1710062000	-8.884235e-001	-1.482957e+002	-1.858182e+001	-9.851299e+001	-1.858997e+001	-9.853107e+001	-1.102815e+000	-1.646029e+002
1732561500	-8.913805e-001	-1.502168e+002	-1.850467e+001	-1.004278e+002	-1.851551e+001	-1.004609e+002	-1.129712e+000	-1.669648e+002
1755061000	-9.002582e-001	-1.521508e+002	-1.845319e+001	-1.023014e+002	-1.845714e+001	-1.023786e+002	-1.136792e+000	-1.691881e+002
1777560500	-8.916547e-001	-1.541528e+002	-1.837975e+001	-1.040781e+002	-1.840122e+001	-1.040834e+002	-1.148499e+000	-1.715630e+002
1800060000	-9.032965e-001	-1.561366e+002	-1.830637e+001	-1.058195e+002	-1.829984e+001	-1.059161e+002	-1.150300e+000	-1.740100e+002
1822559500	-9.059779e-001	-1.580182e+002	-1.819880e+001	-1.078126e+002	-1.820570e+001	-1.078709e+002	-1.172404e+000	-1.763645e+002
1845059000	-9.145373e-001	-1.599413e+002	-1.812683e+001	-1.098163e+002	-1.813102e+001	-1.099211e+002	-1.181269e+000	-1.786812e+002
1867558500	-9.147562e-001	-1.618381e+002	-1.804791e+001	-1.117050e+002	-1.805183e+001	-1.117867e+002	-1.210154e+000	1.789378e+002
1890058000	-9.244690e-001	-1.638081e+002	-1.797776e+001	-1.137345e+002	-1.797033e+001	-1.137923e+002	-1.230295e+000	1.765169e+002
1912557500	-9.239924e-001	-1.656248e+002	-1.786536e+001	-1.157315e+002	-1.787845e+001	-1.157525e+002	-1.249291e+000	1.741350e+002
1935057000	-9.281736e-001	-1.675154e+002	-1.776006e+001	-1.178096e+002	-1.776888e+001	-1.179465e+002	-1.273596e+000	1.716975e+002
1957556500	-9.412453e-001	-1.694227e+002	-1.769131e+001	-1.201248e+002	-1.768903e+001	-1.202332e+002	-1.308791e+000	1.693298e+002
1980056000	-9.515301e-001	-1.712863e+002	-1.762430e+001	-1.225963e+002	-1.762582e+001	-1.226852e+002	-1.347650e+000	1.670287e+002
2002555500	-9.546188e-001	-1.731355e+002	-1.761101e+001	-1.250773e+002	-1.762485e+001	-1.251448e+002	-1.378769e+000	1.647218e+002
2025055000	-9.667544e-001	-1.749385e+002	-1.761780e+001	-1.270946e+002	-1.764115e+001	-1.272882e+002	-1.396404e+000	1.624350e+002
2047554500	-9.610762e-001	-1.769058e+002	-1.761164e+001	-1.290587e+002	-1.762072e+001	-1.292117e+002	-1.414167e+000	1.601160e+002
2070054000	-9.614059e-001	-1.788513e+002	-1.758905e+001	-1.311514e+002	-1.758622e+001	-1.311731e+002	-1.425565e+000	1.577833e+002
2092553500	-9.695472e-001	1.792495e+002	-1.756147e+001	-1.330214e+002	-1.758152e+001	-1.331411e+002	-1.443125e+000	1.553907e+002
2115053000	-9.718315e-001	1.773114e+002	-1.753071e+001	-1.347802e+002	-1.753619e+001	-1.348879e+002	-1.446347e+000	1.529928e+002
2137552500	-9.768555e-001	1.753908e+002	-1.747376e+001	-1.366339e+002	-1.746314e+001	-1.366880e+002	-1.469835e+000	1.505455e+002
2160052000	-9.783025e-001	1.735445e+002	-1.737400e+001	-1.385223e+002	-1.737723e+001	-1.386669e+002	-1.485527e+000	1.480355e+002
2182551500	-9.764721e-001	1.716237e+002	-1.731114e+001	-1.406735e+002	-1.733312e+001	-1.407922e+002	-1.532893e+000	1.455933e+002
2205051000	-9.819246e-001	1.697671e+002	-1.725368e+001	-1.428807e+002	-1.727062e+001	-1.428741e+002	-1.561551e+000	1.432133e+002
2227550500	-9.890486e-001	1.679356e+002	-1.719987e+001	-1.449303e+002	-1.720781e+001	-1.450161e+002	-1.602039e+000	1.407144e+002
2250050000	-9.997553e-001	1.660227e+002	-1.715703e+001	-1.470722e+002	-1.715968e+001	-1.470966e+002	-1.636110e+000	1.382449e+002
2272549500	-1.004023e+000	1.642149e+002	-1.708289e+001	-1.492863e+002	-1.709258e+001	-1.493844e+002	-1.680065e+000	1.357411e+002
2295049000	-1.006454e+000	1.623300e+002	-1.701569e+001	-1.516647e+002	-1.701773e+001	-1.516878e+002	-1.730333e+000	1.332481e+002
2317548500	-1.029831e+000	1.604460e+002	-1.696522e+001	-1.540707e+002	-1.696583e+001	-1.541181e+002	-1.797504e+000	1.307614e+002
2340048000	-1.031647e+000	1.585887e+002	-1.690109e+001	-1.568351e+002	-1.692356e+001	-1.569541e+002	-1.870676e+000	1.283818e+002
2362547500	-1.031494e+000	1.567354e+002	-1.688287e+001	-1.596155e+002	-1.690309e+001	-1.596441e+002	-1.943234e+000	1.261508e+002
2385047000	-1.052930e+000	1.548662e+002	-1.691429e+001	-1.622034e+002	-1.691178e+001	-1.623599e+002	-2.004559e+000	1.238680e+002
2407546500	-1.047862e+000	1.530742e+002	-1.696757e+001	-1.648801e+002	-1.697342e+001	-1.649954e+002	-2.052821e+000	1.217925e+002
2430046000	-1.046438e+000	1.512340e+002	-1.707397e+001	-1.671719e+002	-1.708328e+001	-1.672882e+002	-2.081338e+000	1.195636e+002
2452545500	-1.050492e+000	1.494100e+002	-1.713465e+001	-1.690060e+002	-1.712813e+001	-1.691274e+002	-2.101779e+000	1.172517e+002
2475045000	-1.049222e+000	1.475406e+002	-1.715471e+001	-1.710886e+002	-1.716378e+001	-1.711099e+002	-2.132667e+000	1.148031e+002
2497544500	-1.064361e+000	1.456715e+002	-1.721624e+001	-1.730661e+002	-1.720909e+001	-1.730850e+002	-2.170706e+000	1.123795e+002
2520044000	-1.054196e+000	1.439120e+002	-1.725502e+001	-1.749668e+002	-1.727037e+001	-1.751071e+002	-2.215092e+000	1.098332e+002
2542543500	-1.048282e+000	1.420687e+002	-1.725555e+001	-1.769664e+002	-1.726211e+001	-1.770480e+002	-2.265876e+000	1.073163e+002
2565043000	-1.056766e+000	1.402375e+002	-1.727980e+001	-1.788777e+002	-1.728095e+001	-1.789847e+002	-2.338835e+000	1.047909e+002
2587542500	-1.054433e+000	1.384029e+002	-1.730256e+001	1.792118e+002	-1.730046e+001	1.790993e+002	-2.380521e+000	1.022821e+002
2610042000	-1.057176e+000	1.365571e+002	-1.726457e+001	1.772167e+002	-1.727013e+001	1.771224e+002	-2.476693e+000	9.973084e+001
2632541500	-1.063457e+000	1.347607e+002	-1.726383e+001	1.750109e+002	-1.726498e+001	1.748892e+002	-2.556741e+000	9.716614e+001
2655041000	-1.055685e+000	1.329218e+002	-1.725787e+001	1.730300e+002	-1.727325e+001	1.729150e+002	-2.654355e+000	9.469295e+001
2677540500	-1.067464e+000	1.310026e+002	-1.725115e+001	1.707551e+002	-1.725207e+001	1.707518e+002	-2.759402e+000	9.221777e+001
2700040000	-1.072994e+000	1.292110e+002	-1.725605e+001	1.685506e+002	-1.725184e+001	1.683778e+002	-2.888725e+000	8.974287e+001
2722539500	-1.085003e+000	1.272780e+002	-1.722034e+001	1.660908e+002	-1.721289e+001	1.659880e+002	-3.020454e+000	8.732848e+001
2745039000	-1.086427e+000	1.254370e+002	-1.724502e+001	1.633764e+002	-1.725423e+001	1.632283e+002	-3.169645e+000	8.513015e+001
2767538500	-1.103184e+000	1.235349e+002	-1.730109e+001	1.608060e+002	-1.730048e+001	1.607318e+002	-3.282683e+000	8.291179e+001
2790038000	-1.107888e+000	1.216781e+002	-1.735872e+001	1.583315e+002	-1.736799e+001	1.583337e+002	-3.402073e+000	8.064614e+001
2812537500	-1.112823e+000	1.198926e+002	-1.741525e+001	1.558855e+002	-1.742771e+001	1.558375e+002	-3.520377e+000	7.836901e+001
2835037000	-1.113504e+000	1.180326e+002	-1.749455e+001	1.530745e+002	-1.751809e+001	1.530207e+002	-3.681204e+000	7.622321e+001
2857536500	-1.137130e+000	1.162296e+002	-1.764320e+001	1.504048e+002	-1.763970e+001	1.503080e+002	-3.807402e+000	7.402240e+001
2880036000	-1.144941e+000	1.145646e+002	-1.778372e+001	1.478272e+002	-1.777765e+001	1.476068e+002	-3.956312e+000	7.186045e+001
2902535500	-1.146763e+000	1.128399e+002	-1.796181e+001	1.451195e+002	-1.797136e+001	1.449343e+002	-4.108760e+000	6.978345e+001
2925035000	-1.150439e+000	1.111544e+002	-1.823510e+001	1.429306e+002	-1.824690e+001	1.427068e+002	-4.257342e+000	6.786231e+001
2947534500	-1.144000e+000	1.094273e+002	-1.855213e+001	1.408521e+002	-1.856722e+001	1.406960e+002	-4.388754e+000	6.585217e+001
2970034000	-1.145947e+000	1.075967e+002	-1.886436e+001	1.397838e+002	-1.886040e+001	1.396533e+002	-4.508522e+000	6.382165e+001
2992533500	-1.128062e+000	1.057687e+002	-1.904021e+001	1.390042e+002	-1.905349e+001	1.389276e+002	-4.667307e+000	6.146697e+001
3015033000	-1.122893e+000	1.040028e+002	-1.918289e+001	1.382567e+002	-1.918606e+001	1.381421e+002	-4.848879e+000	5.925670e+001
3037532500	-1.138251e+000	1.020643e+002	-1.929282e+001	1.372706e+002	-1.930823e+001	1.372494e+002	-5.068325e+000	5.717417e+001
3060032000	-1.123152e+000	1.002600e+002	-1.940960e+001	1.365482e+002	-1.944862e+001	1.363484e+002	-5.273426e+000	5.522664e+001
3082531500	-1.133653e+000	9.829890e+001	-1.950463e+001	1.356097e+002	-1.951698e+001	1.356001e+002	-5.511718e+000	5.333752e+001
3105031000	-1.140160e+000	9.635618e+001	-1.949758e+001	1.345733e+002	-1.951438e+001	1.345775e+002	-5.790981e+000	5.157958e+001
3127530500	-1.148478e+000	9.448558e+001	-1.950203e+001	1.335466e+002	-1.951143e+001	1.335763e+002	-6.055659e+000	5.023947e+001
3150030000	-1.156412e+000	9.262078e+001	-1.949317e+001	1.320496e+002	-1.949738e+001	1.319798e+002	-6.328771e+000	4.904662e+001
3172529500	-1.178455e+000	9.074435e+001	-1.952396e+001	1.303288e+002	-1.952945e+001	1.302210e+002	-6.567589e+000	4.813016e+001
3195029000	-1.193402e+000	8.887393e+001	-1.956441e+001	1.285837e+002	-1.957522e+001	1.285638e+002	-6.793066e+000	4.726873e+001
3217528500	-1.208894e+000	8.707971e+001	-1.964916e+001	1.265017e+002	-1.966668e+001	1.265237e+002	-7.032978e+000	4.661140e+001
3240028000	-1.232554e+000	8.528701e+001	-1.981348e+001	1.243452e+002	-1.979220e+001	1.242258e+002	-7.253507e+000	4.616781e+001
3262527500	-1.244466e+000	8.345256e+001	-1.999138e+001	1.223959e+002	-2.000018e+001	1.223450e+002	-7.443200e+000	4.596154e+001
3285027000	-1.271975e+000	8.167828e+001	-2.024019e+001	1.208289e+002	-2.025080e+001	1.208786e+002	-7.560423e+000	4.573474e+001
3307526500	-1.284096e+000	7.999609e+001	-2.053913e+001	1.196662e+002	-2.055562e+001	1.195985e+002	-7.670964e+000	4.572926e+001
3330026000	-1.315202e+000	7.829319e+001	-2.094862e+001	1.188079e+002	-2.094812e+001	1.188608e+002	-7.753225e+000	4.563536e+001
3352525500	-1.317545e+000	7.668418e+001	-2.126552e+001	1.194949e+002	-2.127535e+001	1.195809e+002	-7.796832e+000	4.536218e+001
3375025000	-1.319376e+000	7.491216e+001	-2.143671e+001	1.206798e+002	-2.145321e+001	1.205676e+002	-7.853207e+000	4.516925e+001
