!Agilent Technologies,E5071C,MY46101151,A.11.34
!Date: Mon Sep 17 22:36:44 2018
!Data & Calibration Information:
!Freq	S22:SOLT2(ON)
!PortZ  Port2:50+j0
!Above PortZ is port z conversion or system Z0 setting when saving the data.
!When reading, reference impedance value at option line is always used.
# Hz S dB R 50
100000	1.361551e-001	-1.545155e+002
22599500	1.927224e-002	1.791282e+002
45099000	2.085898e-002	1.787599e+002
67598500	2.145710e-002	1.782657e+002
90098000	1.356545e-002	1.777629e+002
112597500	1.245740e-002	1.772380e+002
135097000	1.373413e-002	1.766649e+002
157596500	1.391045e-002	1.761832e+002
180096000	1.246482e-002	1.756590e+002
202595500	1.152670e-002	1.751180e+002
225095000	8.708164e-003	1.746176e+002
247594500	9.823212e-003	1.741049e+002
270094000	1.443138e-002	1.736003e+002
292593500	1.025042e-002	1.730524e+002
315093000	1.465433e-002	1.725610e+002
337592500	1.465145e-002	1.720413e+002
360092000	5.057089e-003	1.714821e+002
382591500	3.263309e-003	1.709876e+002
405091000	1.541596e-003	1.704939e+002
427590500	8.745393e-004	1.699647e+002
450090000	4.085054e-004	1.694069e+002
472589500	5.487769e-004	1.688746e+002
495089000	4.625917e-003	1.683542e+002
517588500	-1.401693e-003	1.678808e+002
540088000	-1.075944e-003	1.673992e+002
562587500	-6.353253e-004	1.668659e+002
585087000	-4.479345e-005	1.663738e+002
607586500	-5.930564e-003	1.658268e+002
630086000	-1.407418e-002	1.652517e+002
652585500	-1.152321e-002	1.648100e+002
675085000	-1.282553e-002	1.642491e+002
697584500	-4.476342e-003	1.636884e+002
720084000	-1.512851e-002	1.631628e+002
742583500	-9.653644e-003	1.626182e+002
765083000	-2.120053e-002	1.622196e+002
787582500	-1.608932e-002	1.616442e+002
810082000	-2.491872e-002	1.611661e+002
832581500	-1.159566e-002	1.606520e+002
855081000	-1.718804e-002	1.601624e+002
877580500	-1.529891e-002	1.596569e+002
900080000	-1.420882e-002	1.592481e+002
922579500	-2.984345e-002	1.586285e+002
945079000	-2.394201e-002	1.580836e+002
967578500	-2.660456e-002	1.575249e+002
990078000	-1.140153e-002	1.569920e+002
1012577500	-2.024159e-002	1.564883e+002
1035077000	-2.080182e-002	1.559648e+002
1057576500	-2.079708e-002	1.554564e+002
1080076000	-2.585085e-002	1.549646e+002
1102575500	-1.954533e-002	1.544123e+002
1125075000	-2.123529e-002	1.539064e+002
1147574500	-2.951948e-002	1.534427e+002
1170074000	-3.020755e-002	1.528863e+002
1192573500	-3.487282e-002	1.523274e+002
1215073000	-3.278520e-002	1.518214e+002
1237572500	-2.642143e-002	1.513533e+002
1260072000	-2.950481e-002	1.508506e+002
1282571500	-2.745967e-002	1.503224e+002
1305071000	-3.549400e-002	1.497582e+002
1327570500	-2.859934e-002	1.492636e+002
1350070000	-3.612130e-002	1.487445e+002
1372569500	-2.981380e-002	1.481984e+002
1395069000	-3.469087e-002	1.476968e+002
1417568500	-3.713393e-002	1.471261e+002
1440068000	-3.582631e-002	1.465873e+002
1462567500	-3.499127e-002	1.460577e+002
1485067000	-3.280213e-002	1.455652e+002
1507566500	-3.610946e-002	1.450381e+002
1530066000	-3.811581e-002	1.445631e+002
1552565500	-3.622260e-002	1.440342e+002
1575065000	-4.220052e-002	1.435144e+002
1597564500	-3.499693e-002	1.430235e+002
1620064000	-3.718493e-002	1.425325e+002
1642563500	-3.873421e-002	1.419978e+002
1665063000	-4.112198e-002	1.414806e+002
1687562500	-3.979172e-002	1.409519e+002
1710062000	-3.788133e-002	1.404417e+002
1732561500	-3.769068e-002	1.398841e+002
1755061000	-3.285660e-002	1.393892e+002
1777560500	-3.012411e-002	1.388362e+002
1800060000	-3.446067e-002	1.383135e+002
1822559500	-3.532543e-002	1.377834e+002
1845059000	-3.238360e-002	1.372736e+002
1867558500	-3.331855e-002	1.367869e+002
1890058000	-3.290883e-002	1.362566e+002
1912557500	-2.876875e-002	1.357515e+002
1935057000	-3.515318e-002	1.352913e+002
1957556500	-2.712266e-002	1.347381e+002
1980056000	-3.007442e-002	1.342728e+002
2002555500	-2.970031e-002	1.337659e+002
2025055000	-3.038786e-002	1.332052e+002
2047554500	-3.311767e-002	1.326750e+002
2070054000	-2.574421e-002	1.321769e+002
2092553500	-2.961829e-002	1.316178e+002
2115053000	-2.706217e-002	1.310928e+002
2137552500	-2.328649e-002	1.305768e+002
2160052000	-2.777195e-002	1.300594e+002
2182551500	-2.521907e-002	1.295391e+002
2205051000	-2.116735e-002	1.290505e+002
2227550500	-1.764812e-002	1.285293e+002
2250050000	-1.867219e-002	1.280803e+002
2272549500	-2.036141e-002	1.275444e+002
2295049000	-2.679448e-002	1.270086e+002
2317548500	-1.562709e-002	1.265123e+002
2340048000	-1.649304e-002	1.260071e+002
2362547500	-1.113592e-002	1.255283e+002
2385047000	-1.474444e-002	1.249894e+002
2407546500	-2.009485e-002	1.245060e+002
2430046000	-1.262193e-002	1.238985e+002
2452545500	-1.385742e-002	1.234071e+002
2475045000	-1.656922e-002	1.228837e+002
2497544500	-1.112214e-002	1.224230e+002
2520044000	-1.554300e-002	1.218342e+002
2542543500	-1.014735e-002	1.213736e+002
2565043000	-1.267945e-002	1.208008e+002
2587542500	-7.757722e-003	1.203166e+002
2610042000	-5.750835e-003	1.197915e+002
2632541500	-2.099361e-003	1.193872e+002
2655041000	2.983537e-003	1.188560e+002
2677540500	-1.489480e-003	1.183123e+002
2700040000	1.666801e-003	1.178455e+002
2722539500	-1.599430e-003	1.173588e+002
2745039000	-8.175386e-003	1.168475e+002
2767538500	-6.732604e-003	1.162887e+002
2790038000	-1.021137e-002	1.157377e+002
2812537500	-2.999378e-003	1.152326e+002
2835037000	-4.842847e-004	1.147043e+002
2857536500	3.134676e-003	1.141672e+002
2880036000	-6.102510e-003	1.136423e+002
2902535500	9.238328e-003	1.131019e+002
2925035000	7.403300e-003	1.126746e+002
2947534500	2.862747e-003	1.121355e+002
2970034000	8.076508e-003	1.117105e+002
2992533500	-6.116871e-003	1.111028e+002
3015033000	3.023585e-003	1.106102e+002
3037532500	6.663055e-003	1.100670e+002
3060032000	4.003414e-003	1.095226e+002
3082531500	6.948277e-003	1.090352e+002
3105031000	8.371183e-003	1.085393e+002
3127530500	1.225336e-002	1.080419e+002
3150030000	5.631372e-003	1.075161e+002
3172529500	6.689815e-003	1.068868e+002
3195029000	1.278539e-002	1.063970e+002
3217528500	1.424462e-003	1.058843e+002
3240028000	5.324816e-003	1.053712e+002
3262527500	4.056542e-003	1.048619e+002
3285027000	-4.156047e-004	1.043255e+002
3307526500	8.744062e-003	1.038200e+002
3330026000	1.165443e-002	1.032739e+002
3352525500	1.204838e-002	1.028095e+002
3375025000	9.219834e-003	1.023409e+002
3397524500	1.055866e-002	1.018055e+002
3420024000	8.604487e-003	1.013072e+002
3442523500	1.163234e-002	1.008132e+002
3465023000	9.768401e-003	1.002888e+002
3487522500	6.155372e-003	9.973749e+001
3510022000	7.533280e-003	9.917707e+001
3532521500	3.682017e-003	9.865673e+001
3555021000	7.798947e-004	9.817312e+001
3577520500	4.069204e-003	9.763169e+001
3600020000	5.233300e-003	9.712585e+001
3622519500	1.861069e-003	9.660373e+001
3645019000	6.624945e-004	9.610211e+001
3667518500	1.480199e-003	9.557726e+001
3690018000	6.903960e-003	9.509860e+001
3712517500	3.727492e-003	9.453551e+001
3735017000	-7.003476e-003	9.410573e+001
3757516500	-6.371907e-003	9.358539e+001
3780016000	-1.773180e-003	9.308270e+001
3802515500	-1.307645e-003	9.252875e+001
3825015000	-8.221907e-004	9.201964e+001
3847514500	-7.972981e-003	9.147566e+001
3870014000	-1.553905e-003	9.090027e+001
3892513500	-8.042903e-003	9.039567e+001
3915013000	-9.667831e-003	8.983961e+001
3937512500	-1.292167e-002	8.937614e+001
3960012000	-1.159032e-002	8.884496e+001
3982511500	-1.299715e-002	8.830336e+001
4005011000	-1.668013e-002	8.779714e+001
4027510500	-7.880973e-003	8.732490e+001
4050010000	-1.791374e-002	8.685717e+001
4072509500	-1.908837e-002	8.630431e+001
4095009000	-2.976156e-002	8.582385e+001
4117508500	-2.320991e-002	8.522401e+001
4140008000	-1.277288e-002	8.470279e+001
4162507500	-1.688768e-002	8.418560e+001
4185007000	-2.523279e-002	8.364897e+001
4207506500	-2.281250e-002	8.316218e+001
4230006000	-2.444466e-002	8.267614e+001
4252505500	-3.125676e-002	8.212242e+001
4275005000	-2.146987e-002	8.160434e+001
4297504500	-2.955305e-002	8.108869e+001
4320004000	-3.260250e-002	8.064354e+001
4342503500	-4.090527e-002	8.008281e+001
4365003000	-4.619843e-002	7.955390e+001
4387502500	-3.709788e-002	7.895057e+001
4410002000	-3.425880e-002	7.851323e+001
4432501500	-2.501478e-002	7.800001e+001
4455001000	-3.898534e-002	7.749481e+001
4477500500	-3.524184e-002	7.695261e+001
4500000000	-3.534707e-002	7.644874e+001
