!Agilent Technologies,E5071C,MY46101151,A.11.34
!Date: Mon Sep 17 22:35:31 2018
!Data & Calibration Information:
!Freq	S22:SOLT2(ON)
!PortZ  Port2:50+j0
!Above PortZ is port z conversion or system Z0 setting when saving the data.
!When reading, reference impedance value at option line is always used.
# Hz S dB R 50
100000	3.360410e-003	2.546009e+001
22599500	7.582921e-003	-5.003081e-001
45099000	6.008939e-003	-1.015985e+000
67598500	8.874506e-003	-1.526270e+000
90098000	7.881319e-003	-2.037444e+000
112597500	1.317306e-003	-2.568484e+000
135097000	3.160434e-004	-3.091931e+000
157596500	4.154643e-003	-3.581959e+000
180096000	1.305254e-003	-4.115835e+000
202595500	4.388720e-003	-4.598176e+000
225095000	4.845750e-003	-5.116123e+000
247594500	2.025969e-003	-5.624512e+000
270094000	3.505489e-004	-6.114224e+000
292593500	-2.650262e-003	-6.612526e+000
315093000	-3.625848e-003	-7.158053e+000
337592500	2.709009e-003	-7.679525e+000
360092000	4.012909e-003	-8.181450e+000
382591500	3.741913e-003	-8.651543e+000
405091000	6.216458e-003	-9.168571e+000
427590500	8.579515e-003	-9.672450e+000
450090000	1.027372e-002	-1.023559e+001
472589500	1.218063e-002	-1.071266e+001
495089000	1.367194e-003	-1.120004e+001
517588500	2.687961e-003	-1.173466e+001
540088000	1.576035e-003	-1.226513e+001
562587500	6.424079e-003	-1.278488e+001
585087000	1.021556e-002	-1.330776e+001
607586500	1.086954e-002	-1.380496e+001
630086000	1.514119e-002	-1.429285e+001
652585500	1.847902e-002	-1.479286e+001
675085000	1.126895e-002	-1.529798e+001
697584500	1.214041e-002	-1.581875e+001
720084000	1.760734e-002	-1.625907e+001
742583500	1.608135e-002	-1.678462e+001
765083000	1.889076e-002	-1.733105e+001
787582500	6.997627e-003	-1.785780e+001
810082000	1.486507e-002	-1.834898e+001
832581500	8.225004e-003	-1.896508e+001
855081000	1.963503e-002	-1.948287e+001
877580500	1.970246e-002	-1.999482e+001
900080000	2.657781e-002	-2.053530e+001
922579500	2.514073e-002	-2.098219e+001
945079000	2.859604e-002	-2.151514e+001
967578500	3.014547e-002	-2.196246e+001
990078000	2.242296e-002	-2.248014e+001
1012577500	2.576042e-002	-2.296650e+001
1035077000	2.207197e-002	-2.346639e+001
1057576500	1.656397e-002	-2.402329e+001
1080076000	2.942923e-002	-2.451918e+001
1102575500	2.644467e-002	-2.506053e+001
1125075000	2.451622e-002	-2.560998e+001
1147574500	4.386227e-002	-2.610553e+001
1170074000	3.218185e-002	-2.661876e+001
1192573500	3.566137e-002	-2.708728e+001
1215073000	3.498937e-002	-2.760780e+001
1237572500	3.038727e-002	-2.818854e+001
1260072000	3.419378e-002	-2.871782e+001
1282571500	2.936845e-002	-2.919537e+001
1305071000	2.997947e-002	-2.962764e+001
1327570500	2.422469e-002	-3.019379e+001
1350070000	3.501243e-002	-3.070676e+001
1372569500	2.884627e-002	-3.121718e+001
1395069000	3.958445e-002	-3.168408e+001
1417568500	3.132482e-002	-3.219078e+001
1440068000	3.006878e-002	-3.271897e+001
1462567500	3.694193e-002	-3.321838e+001
1485067000	3.440395e-002	-3.365502e+001
1507566500	3.732405e-002	-3.419047e+001
1530066000	3.841384e-002	-3.474221e+001
1552565500	3.467823e-002	-3.529406e+001
1575065000	3.898522e-002	-3.573773e+001
1597564500	3.932841e-002	-3.632964e+001
1620064000	3.834890e-002	-3.683718e+001
1642563500	3.790590e-002	-3.736032e+001
1665063000	4.187932e-002	-3.787195e+001
1687562500	3.783173e-002	-3.836145e+001
1710062000	3.491695e-002	-3.882168e+001
1732561500	3.245367e-002	-3.935062e+001
1755061000	3.396472e-002	-3.985296e+001
1777560500	3.321148e-002	-4.035818e+001
1800060000	3.203784e-002	-4.084981e+001
1822559500	3.157802e-002	-4.138562e+001
1845059000	3.413286e-002	-4.189303e+001
1867558500	2.608219e-002	-4.245614e+001
1890058000	2.812110e-002	-4.293745e+001
1912557500	2.712661e-002	-4.348696e+001
1935057000	2.961283e-002	-4.406455e+001
1957556500	3.159772e-002	-4.451626e+001
1980056000	2.714413e-002	-4.502348e+001
2002555500	2.633294e-002	-4.555172e+001
2025055000	3.467326e-002	-4.604685e+001
2047554500	3.339293e-002	-4.660486e+001
2070054000	2.233748e-002	-4.708364e+001
2092553500	2.602447e-002	-4.756589e+001
2115053000	1.698636e-002	-4.811474e+001
2137552500	1.798514e-002	-4.856188e+001
2160052000	2.658543e-002	-4.912863e+001
2182551500	2.681185e-002	-4.963048e+001
2205051000	2.227096e-002	-5.015671e+001
2227550500	1.906098e-002	-5.066018e+001
2250050000	1.174165e-002	-5.120420e+001
2272549500	1.595844e-002	-5.174999e+001
2295049000	2.333818e-002	-5.231281e+001
2317548500	1.314232e-002	-5.279737e+001
2340048000	1.327413e-002	-5.336565e+001
2362547500	1.385926e-002	-5.384029e+001
2385047000	1.034478e-002	-5.434599e+001
2407546500	8.541097e-003	-5.489894e+001
2430046000	1.695945e-002	-5.532508e+001
2452545500	9.633390e-003	-5.582385e+001
2475045000	6.435570e-003	-5.629604e+001
2497544500	2.670313e-003	-5.692001e+001
2520044000	7.703370e-003	-5.739705e+001
2542543500	6.794817e-003	-5.793395e+001
2565043000	1.600822e-002	-5.845580e+001
2587542500	5.159450e-004	-5.899485e+001
2610042000	2.302344e-003	-5.947374e+001
2632541500	-1.341464e-002	-6.007578e+001
2655041000	-6.110361e-003	-6.057295e+001
2677540500	7.818877e-003	-6.110232e+001
2700040000	4.109225e-003	-6.161844e+001
2722539500	4.386369e-003	-6.216810e+001
2745039000	1.832374e-004	-6.269765e+001
2767538500	-3.409070e-003	-6.314964e+001
2790038000	-3.745108e-003	-6.365902e+001
2812537500	-2.828709e-003	-6.421730e+001
2835037000	-2.068828e-003	-6.471067e+001
2857536500	-7.536486e-003	-6.514724e+001
2880036000	-3.913144e-003	-6.571035e+001
2902535500	-6.414996e-003	-6.615441e+001
2925035000	-1.190602e-002	-6.675781e+001
2947534500	-6.477606e-003	-6.724965e+001
2970034000	-1.539633e-002	-6.775883e+001
2992533500	-2.036986e-003	-6.827500e+001
3015033000	-7.975919e-003	-6.879932e+001
3037532500	-1.021836e-002	-6.932072e+001
3060032000	-9.489950e-003	-6.984751e+001
3082531500	-3.768891e-003	-7.039701e+001
3105031000	-9.860979e-003	-7.088371e+001
3127530500	-1.724614e-002	-7.134953e+001
3150030000	-1.706012e-002	-7.189655e+001
3172529500	-9.193542e-003	-7.242252e+001
3195029000	-8.054402e-003	-7.287390e+001
3217528500	-3.943344e-003	-7.344228e+001
3240028000	-8.668437e-003	-7.392998e+001
3262527500	-1.430121e-002	-7.445967e+001
3285027000	-9.119797e-003	-7.494361e+001
3307526500	-1.291138e-002	-7.546496e+001
3330026000	-1.089419e-002	-7.597524e+001
3352525500	-1.244210e-002	-7.650588e+001
3375025000	-1.405992e-002	-7.709873e+001
3397524500	-1.100329e-002	-7.757881e+001
3420024000	-1.235536e-002	-7.808317e+001
3442523500	-8.941802e-003	-7.860932e+001
3465023000	-6.883656e-003	-7.909348e+001
3487522500	-7.854152e-003	-7.962264e+001
3510022000	-6.214928e-003	-8.010206e+001
3532521500	-7.126864e-003	-8.059018e+001
3555021000	-5.064636e-003	-8.109125e+001
3577520500	-8.811117e-003	-8.161330e+001
3600020000	-7.212874e-003	-8.213956e+001
3622519500	-1.072025e-003	-8.267990e+001
3645019000	-3.521832e-003	-8.320468e+001
3667518500	-5.006722e-003	-8.373214e+001
3690018000	-6.014544e-003	-8.422930e+001
3712517500	-5.498741e-003	-8.477379e+001
3735017000	-2.263266e-003	-8.529305e+001
3757516500	1.728920e-003	-8.582738e+001
3780016000	3.973559e-003	-8.635032e+001
3802515500	2.786553e-003	-8.683979e+001
3825015000	2.996440e-003	-8.736823e+001
3847514500	1.535966e-003	-8.784590e+001
3870014000	3.992522e-004	-8.834703e+001
3892513500	1.085082e-002	-8.884542e+001
3915013000	5.106560e-003	-8.935227e+001
3937512500	1.124460e-002	-8.985645e+001
3960012000	4.742853e-003	-9.037897e+001
3982511500	3.599027e-003	-9.088277e+001
4005011000	7.426143e-003	-9.143565e+001
4027510500	1.460164e-002	-9.201368e+001
4050010000	1.975050e-002	-9.252186e+001
4072509500	1.283030e-002	-9.303509e+001
4095009000	2.462513e-002	-9.354324e+001
4117508500	1.728656e-002	-9.409258e+001
4140008000	2.056228e-002	-9.458417e+001
4162507500	2.357307e-002	-9.509789e+001
4185007000	2.428984e-002	-9.552204e+001
4207506500	2.094054e-002	-9.607336e+001
4230006000	1.957922e-002	-9.664439e+001
4252505500	2.555224e-002	-9.710877e+001
4275005000	2.314201e-002	-9.768025e+001
4297504500	2.921030e-002	-9.812375e+001
4320004000	3.438239e-002	-9.863074e+001
4342503500	2.806707e-002	-9.913274e+001
4365003000	3.487770e-002	-9.963483e+001
4387502500	2.574205e-002	-1.001698e+002
4410002000	4.094221e-002	-1.006425e+002
4432501500	2.985240e-002	-1.011840e+002
4455001000	3.164979e-002	-1.016795e+002
4477500500	2.627995e-002	-1.022724e+002
4500000000	3.416111e-002	-1.028333e+002
