!Agilent Technologies,E5071C,MY46101151,A.11.34
!Date: Mon Sep 17 22:42:43 2018
!Data & Calibration Information:
!Freq	S11:SOLT2(ON)	S21:SOLT2(ON)	S12:SOLT2(ON)	S22:SOLT2(ON)
!PortZ  Port1:50+j0    Port2:50+j0
!Above PortZ is port z conversion or system Z0 setting when saving the data.
!When reading, reference impedance value at option line is always used.
# Hz S dB R 50
100000	-3.376208e+001	-1.104766e+002	-1.319557e-003	2.444021e+001	6.313071e-002	2.446947e+001	-3.723339e+001	-1.110426e+002
22599500	-5.043179e+001	8.001166e+001	1.024259e-002	-5.598541e-001	5.050776e-003	-5.879172e-001	-4.602821e+001	9.718739e+001
45099000	-5.166583e+001	1.345123e+002	9.982905e-003	-9.063912e-001	5.803823e-003	-9.113846e-001	-5.809243e+001	1.141951e+002
67598500	-5.086358e+001	1.199056e+002	8.538167e-003	-1.357222e+000	7.372589e-003	-1.332767e+000	-5.573357e+001	1.333313e+002
90098000	-5.569845e+001	8.551938e+001	3.533203e-003	-1.758056e+000	6.657619e-003	-1.755344e+000	-5.763751e+001	1.453571e+002
112597500	-5.435765e+001	1.164510e+002	-1.465621e-003	-2.173618e+000	1.497990e-003	-2.200110e+000	-5.365955e+001	1.259229e+002
135097000	-5.269788e+001	9.256703e+001	-2.555612e-003	-2.580657e+000	3.858997e-003	-2.580486e+000	-5.450312e+001	1.066766e+002
157596500	-4.970716e+001	9.529517e+001	4.104986e-003	-3.021852e+000	4.821769e-003	-2.987424e+000	-5.613802e+001	1.056937e+002
180096000	-4.799620e+001	8.736098e+001	4.019525e-003	-3.393328e+000	5.517326e-003	-3.393090e+000	-5.873558e+001	7.764223e+001
202595500	-4.772417e+001	7.969491e+001	-9.778733e-004	-3.796654e+000	1.549905e-003	-3.816189e+000	-5.468511e+001	9.611226e+001
225095000	-5.055224e+001	9.135320e+001	1.042800e-003	-4.223098e+000	2.259799e-004	-4.204542e+000	-5.267408e+001	9.089563e+001
247594500	-5.195556e+001	8.868175e+001	2.623044e-003	-4.633449e+000	4.699240e-003	-4.606045e+000	-4.980365e+001	1.013820e+002
270094000	-4.990980e+001	8.321116e+001	2.697677e-003	-5.037143e+000	2.636442e-003	-5.025238e+000	-4.906071e+001	9.398908e+001
292593500	-4.888963e+001	8.685486e+001	7.893500e-004	-5.449943e+000	2.512602e-003	-5.475458e+000	-4.812750e+001	9.913165e+001
315093000	-4.822354e+001	7.817228e+001	5.210456e-004	-5.856298e+000	4.387988e-003	-5.858384e+000	-4.829600e+001	1.027671e+002
337592500	-4.766240e+001	7.290828e+001	1.713599e-003	-6.271823e+000	2.239771e-003	-6.280015e+000	-4.952430e+001	9.086211e+001
360092000	-4.704803e+001	7.489046e+001	-3.109577e-004	-6.687138e+000	1.364577e-003	-6.684921e+000	-4.840837e+001	8.174910e+001
382591500	-4.656988e+001	6.841504e+001	-9.903491e-004	-7.089056e+000	3.319700e-003	-7.157936e+000	-4.831712e+001	9.129342e+001
405091000	-4.608095e+001	7.070344e+001	-1.411826e-003	-7.518044e+000	4.622820e-003	-7.540666e+000	-5.089989e+001	8.875212e+001
427590500	-4.624685e+001	8.287993e+001	1.122060e-003	-7.949775e+000	4.316679e-003	-7.941964e+000	-4.956255e+001	8.192104e+001
450090000	-4.670230e+001	8.062215e+001	2.497834e-003	-8.353099e+000	3.744057e-004	-8.335219e+000	-4.772974e+001	9.044508e+001
472589500	-4.435940e+001	7.630499e+001	7.872348e-004	-8.776040e+000	2.015242e-003	-8.740794e+000	-4.797884e+001	6.813432e+001
495089000	-4.630727e+001	8.154565e+001	3.153100e-003	-9.206105e+000	9.773622e-004	-9.185323e+000	-4.841813e+001	7.865545e+001
517588500	-4.416045e+001	7.799445e+001	-8.414167e-004	-9.601700e+000	9.914503e-004	-9.578588e+000	-4.675875e+001	8.323015e+001
540088000	-4.447909e+001	6.426677e+001	-4.275225e-003	-9.997201e+000	7.514477e-004	-1.000456e+001	-4.879046e+001	8.210225e+001
562587500	-4.463741e+001	7.266136e+001	-1.436643e-003	-1.039983e+001	-2.892468e-003	-1.042469e+001	-4.666169e+001	7.563526e+001
585087000	-4.462338e+001	6.690474e+001	-2.977975e-003	-1.083374e+001	2.666840e-003	-1.085365e+001	-4.869858e+001	7.501529e+001
607586500	-4.391118e+001	6.124107e+001	-8.952142e-004	-1.124142e+001	-1.481965e-003	-1.126322e+001	-4.778182e+001	6.099889e+001
630086000	-4.414240e+001	7.239295e+001	2.866011e-003	-1.166671e+001	4.694315e-005	-1.167508e+001	-4.704098e+001	7.176132e+001
652585500	-4.373380e+001	6.330183e+001	-1.862219e-003	-1.204683e+001	2.368156e-004	-1.205966e+001	-4.666455e+001	8.390050e+001
675085000	-4.310653e+001	6.454902e+001	-4.458245e-003	-1.247537e+001	1.040488e-003	-1.248317e+001	-4.530409e+001	7.485401e+001
697584500	-4.430332e+001	5.737395e+001	1.154693e-003	-1.287816e+001	2.484467e-003	-1.294226e+001	-4.641506e+001	8.058056e+001
720084000	-4.248520e+001	6.425653e+001	-2.411985e-003	-1.330445e+001	-4.935904e-003	-1.330488e+001	-4.424274e+001	6.340017e+001
742583500	-4.381294e+001	5.527497e+001	-2.309699e-003	-1.368983e+001	-1.037409e-003	-1.371848e+001	-4.471903e+001	7.795369e+001
765083000	-4.151242e+001	5.933830e+001	-3.575781e-003	-1.412978e+001	-9.141109e-004	-1.409769e+001	-4.639547e+001	7.283965e+001
787582500	-4.203079e+001	5.889827e+001	-4.982726e-003	-1.457006e+001	-2.369334e-003	-1.456233e+001	-4.657522e+001	8.064340e+001
810082000	-4.208807e+001	5.279693e+001	-1.588003e-004	-1.495878e+001	-3.203289e-003	-1.496225e+001	-4.447086e+001	6.834435e+001
832581500	-4.220723e+001	5.188528e+001	-8.063775e-003	-1.537339e+001	2.234632e-003	-1.539438e+001	-4.550035e+001	9.288393e+001
855081000	-4.374670e+001	4.820307e+001	4.937860e-004	-1.577627e+001	5.008661e-003	-1.578557e+001	-4.602452e+001	7.042288e+001
877580500	-4.218078e+001	5.036995e+001	-2.603117e-003	-1.619240e+001	5.192937e-003	-1.622033e+001	-4.524043e+001	8.196066e+001
900080000	-4.253928e+001	4.217519e+001	1.952097e-003	-1.661691e+001	7.561053e-003	-1.662979e+001	-4.927865e+001	7.438029e+001
922579500	-4.348346e+001	5.384559e+001	-1.398996e-003	-1.705378e+001	2.612428e-003	-1.702060e+001	-4.559741e+001	7.906961e+001
945079000	-4.336116e+001	4.063294e+001	-1.758900e-004	-1.744802e+001	6.017725e-003	-1.741237e+001	-4.560133e+001	7.920512e+001
967578500	-4.423896e+001	4.683764e+001	-1.438001e-004	-1.790619e+001	3.509279e-003	-1.781724e+001	-4.569196e+001	6.405453e+001
990078000	-4.303754e+001	5.120539e+001	3.084385e-004	-1.832415e+001	2.370207e-003	-1.827447e+001	-4.500919e+001	7.606147e+001
1012577500	-4.278912e+001	5.012876e+001	1.860032e-003	-1.873946e+001	2.972789e-003	-1.866577e+001	-4.483356e+001	7.161114e+001
1035077000	-4.230344e+001	4.199046e+001	2.568979e-003	-1.914124e+001	4.285926e-003	-1.909343e+001	-4.456787e+001	7.138507e+001
1057576500	-4.176707e+001	4.359929e+001	-7.124969e-004	-1.954182e+001	6.316185e-003	-1.953483e+001	-4.538710e+001	8.127298e+001
1080076000	-4.145059e+001	3.695703e+001	4.768716e-003	-1.994757e+001	4.034279e-003	-1.996459e+001	-4.461611e+001	7.349322e+001
1102575500	-4.276275e+001	3.936677e+001	1.133755e-003	-2.038040e+001	4.146947e-003	-2.039998e+001	-4.361635e+001	7.506697e+001
1125075000	-4.212113e+001	3.888004e+001	1.992187e-003	-2.078985e+001	4.978259e-003	-2.079242e+001	-4.509171e+001	7.521648e+001
1147574500	-4.174128e+001	3.853065e+001	-1.891986e-003	-2.119390e+001	4.926561e-003	-2.117118e+001	-4.501558e+001	7.479537e+001
1170074000	-4.329147e+001	3.691130e+001	8.170488e-004	-2.160671e+001	5.225086e-003	-2.158962e+001	-4.771009e+001	7.302379e+001
1192573500	-4.276420e+001	3.055191e+001	3.249384e-003	-2.202729e+001	6.796740e-003	-2.200102e+001	-4.795627e+001	7.945998e+001
1215073000	-4.241039e+001	3.480414e+001	-7.920308e-004	-2.247170e+001	4.615070e-003	-2.239923e+001	-4.734538e+001	8.338399e+001
1237572500	-4.275837e+001	2.881134e+001	-1.845890e-003	-2.288145e+001	4.979652e-003	-2.282798e+001	-4.841783e+001	7.007045e+001
1260072000	-4.293095e+001	2.502428e+001	3.246634e-003	-2.329264e+001	6.995105e-003	-2.323128e+001	-4.746721e+001	6.615140e+001
1282571500	-4.243587e+001	2.872442e+001	2.537092e-003	-2.369407e+001	4.394658e-003	-2.366907e+001	-4.572951e+001	8.425191e+001
1305071000	-4.157629e+001	2.974600e+001	-9.702512e-004	-2.410235e+001	6.406869e-003	-2.408180e+001	-4.643300e+001	7.967200e+001
1327570500	-4.240974e+001	3.091470e+001	-2.434387e-003	-2.451576e+001	3.447249e-003	-2.451402e+001	-4.586610e+001	8.663388e+001
1350070000	-4.192009e+001	2.326116e+001	3.812469e-003	-2.489188e+001	7.942559e-003	-2.490333e+001	-4.672393e+001	7.133080e+001
1372569500	-4.291354e+001	2.570207e+001	7.292832e-003	-2.533171e+001	5.502321e-003	-2.536525e+001	-4.638768e+001	7.655333e+001
1395069000	-4.257343e+001	2.644773e+001	4.275948e-003	-2.574229e+001	8.354672e-003	-2.573494e+001	-4.603233e+001	7.035149e+001
1417568500	-4.372312e+001	2.544561e+001	-9.739263e-004	-2.615574e+001	7.991927e-003	-2.616083e+001	-4.559967e+001	8.013959e+001
1440068000	-4.261959e+001	2.975483e+001	-2.821893e-003	-2.657599e+001	3.378371e-003	-2.658462e+001	-4.542014e+001	7.764227e+001
1462567500	-4.111351e+001	1.341663e+001	3.233753e-004	-2.696565e+001	5.255475e-003	-2.699139e+001	-4.610263e+001	7.444692e+001
1485067000	-4.279535e+001	1.286847e+001	3.025661e-003	-2.738658e+001	4.182002e-003	-2.741906e+001	-4.646944e+001	7.675964e+001
1507566500	-4.275114e+001	1.259254e+001	5.209782e-004	-2.778697e+001	4.725954e-003	-2.784419e+001	-4.693615e+001	7.768790e+001
1530066000	-4.285100e+001	9.845875e+000	2.333791e-003	-2.822196e+001	2.124812e-003	-2.823974e+001	-4.752498e+001	7.491668e+001
1552565500	-4.274745e+001	7.096882e+000	5.739211e-004	-2.865553e+001	4.461316e-003	-2.866741e+001	-4.865659e+001	8.409665e+001
1575065000	-4.300361e+001	1.002331e+001	-1.253794e-003	-2.908158e+001	2.491053e-003	-2.904393e+001	-4.578357e+001	8.114781e+001
1597564500	-4.426801e+001	7.735002e+000	-1.515704e-003	-2.947827e+001	4.241546e-003	-2.948208e+001	-4.697919e+001	8.299368e+001
1620064000	-4.250949e+001	4.619455e+000	4.498058e-003	-2.987820e+001	6.022917e-003	-2.987654e+001	-4.697325e+001	8.291218e+001
1642563500	-4.332012e+001	-2.731534e+000	-2.355101e-003	-3.029564e+001	8.016878e-003	-3.032533e+001	-5.081226e+001	8.587982e+001
1665063000	-4.226232e+001	-2.793704e+000	3.983006e-004	-3.072020e+001	1.089526e-002	-3.073580e+001	-4.999404e+001	7.947340e+001
1687562500	-4.285226e+001	-3.125145e+000	2.235890e-003	-3.113587e+001	4.757586e-003	-3.113929e+001	-4.894727e+001	1.044434e+002
1710062000	-4.348550e+001	-7.517047e+000	-1.453845e-003	-3.156977e+001	2.464135e-003	-3.156897e+001	-4.643156e+001	1.018182e+002
1732561500	-4.313420e+001	-7.590922e+000	1.723063e-004	-3.197417e+001	1.290053e-003	-3.198411e+001	-4.711484e+001	1.116532e+002
1755061000	-4.358876e+001	-9.618699e+000	3.066882e-003	-3.237437e+001	3.174367e-004	-3.238402e+001	-4.728224e+001	9.979146e+001
1777560500	-4.339281e+001	-5.731041e+000	2.325402e-003	-3.277139e+001	2.760920e-003	-3.279578e+001	-4.889158e+001	9.614115e+001
1800060000	-4.410110e+001	-1.551540e+001	2.078042e-003	-3.321677e+001	7.239694e-003	-3.320301e+001	-4.750226e+001	9.696458e+001
1822559500	-4.406407e+001	-2.063097e+001	-1.641089e-003	-3.363807e+001	6.673679e-003	-3.363269e+001	-4.802001e+001	9.583192e+001
1845059000	-4.253819e+001	-1.320410e+001	5.640346e-003	-3.404984e+001	5.649119e-003	-3.405810e+001	-4.746487e+001	1.041613e+002
1867558500	-4.344213e+001	-1.945124e+001	2.460275e-003	-3.446663e+001	5.162333e-003	-3.447078e+001	-4.771519e+001	1.104196e+002
1890058000	-4.319552e+001	-2.247140e+001	1.596361e-003	-3.488896e+001	6.891932e-003	-3.488935e+001	-4.810250e+001	1.036643e+002
1912557500	-4.340818e+001	-2.095538e+001	1.647043e-003	-3.527733e+001	4.096359e-003	-3.530563e+001	-4.748661e+001	1.080489e+002
1935057000	-4.308560e+001	-3.025695e+001	2.381949e-003	-3.572236e+001	1.460679e-004	-3.573430e+001	-5.018485e+001	1.290914e+002
1957556500	-4.280737e+001	-3.768645e+001	7.974240e-004	-3.613778e+001	4.384497e-003	-3.614051e+001	-4.875826e+001	1.203089e+002
1980056000	-4.292172e+001	-4.031830e+001	3.710030e-003	-3.653333e+001	3.301489e-003	-3.655241e+001	-4.726772e+001	1.188511e+002
2002555500	-4.342179e+001	-4.018368e+001	2.757344e-003	-3.695159e+001	9.193986e-004	-3.696736e+001	-4.713023e+001	1.391292e+002
2025055000	-4.372463e+001	-4.074194e+001	7.456136e-004	-3.738083e+001	7.399948e-003	-3.737321e+001	-4.947352e+001	1.238750e+002
2047554500	-4.421681e+001	-3.803266e+001	-1.166148e-003	-3.775628e+001	4.171183e-003	-3.781435e+001	-4.905033e+001	1.489790e+002
2070054000	-4.296343e+001	-4.219687e+001	-3.222585e-004	-3.821860e+001	4.310470e-003	-3.820684e+001	-4.805297e+001	1.345236e+002
2092553500	-4.254474e+001	-4.636860e+001	2.101826e-003	-3.862889e+001	1.004347e-002	-3.860298e+001	-4.770086e+001	1.235866e+002
2115053000	-4.333960e+001	-3.948966e+001	5.403995e-003	-3.903186e+001	5.038419e-003	-3.904225e+001	-4.782136e+001	1.445885e+002
2137552500	-4.410421e+001	-3.746742e+001	3.729297e-003	-3.943373e+001	5.992466e-003	-3.943047e+001	-4.686556e+001	1.302367e+002
2160052000	-4.379492e+001	-4.556762e+001	8.247569e-004	-3.984974e+001	6.404336e-003	-3.987340e+001	-4.867369e+001	1.452141e+002
2182551500	-4.230912e+001	-4.309319e+001	3.468254e-003	-4.029297e+001	8.238034e-003	-4.028383e+001	-4.776152e+001	1.301273e+002
2205051000	-4.288069e+001	-5.217735e+001	1.971679e-003	-4.070132e+001	6.293017e-003	-4.069521e+001	-4.704319e+001	1.414854e+002
2227550500	-4.227043e+001	-5.976050e+001	2.298094e-003	-4.112707e+001	6.820360e-003	-4.110162e+001	-4.575409e+001	1.317108e+002
2250050000	-4.306025e+001	-6.025870e+001	1.469447e-003	-4.152233e+001	6.570824e-003	-4.152595e+001	-4.588566e+001	1.508034e+002
2272549500	-4.275750e+001	-6.047176e+001	4.859062e-005	-4.197136e+001	6.832772e-003	-4.195786e+001	-4.532576e+001	1.553018e+002
2295049000	-4.282339e+001	-6.791118e+001	-1.881972e-003	-4.237985e+001	5.397464e-003	-4.237096e+001	-4.532175e+001	1.580898e+002
2317548500	-4.202434e+001	-6.679843e+001	1.332774e-004	-4.277689e+001	3.625729e-003	-4.276373e+001	-4.544489e+001	1.611049e+002
2340048000	-4.197960e+001	-6.898443e+001	1.068110e-003	-4.316341e+001	2.911252e-003	-4.317804e+001	-4.568503e+001	1.659560e+002
2362547500	-4.197362e+001	-5.613830e+001	4.182855e-003	-4.357866e+001	1.413084e-003	-4.360194e+001	-4.486927e+001	1.648132e+002
2385047000	-4.136924e+001	-6.650724e+001	-6.104945e-004	-4.401877e+001	7.705239e-003	-4.401932e+001	-4.506916e+001	1.526835e+002
2407546500	-4.175367e+001	-6.388470e+001	1.384624e-003	-4.440865e+001	1.037393e-003	-4.442432e+001	-4.230056e+001	1.685288e+002
2430046000	-4.225575e+001	-6.807170e+001	1.707293e-003	-4.485964e+001	1.134567e-002	-4.484257e+001	-4.336333e+001	1.494822e+002
2452545500	-4.242511e+001	-6.946680e+001	1.788313e-003	-4.526796e+001	9.343235e-003	-4.525321e+001	-4.243970e+001	1.452209e+002
2475045000	-4.298342e+001	-7.201915e+001	1.785741e-003	-4.566508e+001	8.829881e-003	-4.570073e+001	-4.255534e+001	1.451807e+002
2497544500	-4.073564e+001	-6.511147e+001	2.195835e-003	-4.610875e+001	5.433241e-003	-4.609245e+001	-4.353497e+001	1.651207e+002
2520044000	-4.198180e+001	-7.017482e+001	3.412511e-003	-4.652167e+001	5.653946e-003	-4.653376e+001	-4.414480e+001	1.530230e+002
2542543500	-4.214219e+001	-7.426154e+001	5.900303e-003	-4.693367e+001	2.371540e-003	-4.693565e+001	-4.328085e+001	1.588133e+002
2565043000	-4.119723e+001	-7.868563e+001	2.547554e-003	-4.735195e+001	3.475595e-003	-4.736176e+001	-4.356492e+001	1.551106e+002
2587542500	-4.135131e+001	-7.050667e+001	3.421852e-003	-4.778787e+001	3.090414e-003	-4.778181e+001	-4.395497e+001	1.577967e+002
2610042000	-4.149349e+001	-7.781875e+001	2.261276e-003	-4.818388e+001	4.347614e-003	-4.816449e+001	-4.357445e+001	1.546783e+002
2632541500	-4.158737e+001	-8.542108e+001	8.824488e-004	-4.858538e+001	3.218754e-003	-4.858219e+001	-4.150904e+001	1.632070e+002
2655041000	-4.081003e+001	-8.617884e+001	2.629594e-005	-4.899296e+001	6.021984e-003	-4.897855e+001	-4.152092e+001	1.601508e+002
2677540500	-4.102996e+001	-7.944399e+001	-6.938265e-004	-4.943039e+001	7.899916e-003	-4.941688e+001	-4.204024e+001	1.598650e+002
2700040000	-4.109240e+001	-7.988806e+001	1.119574e-003	-4.984182e+001	1.045595e-002	-4.982892e+001	-4.186254e+001	1.594720e+002
2722539500	-4.062561e+001	-7.913880e+001	1.169060e-003	-5.026163e+001	7.055538e-003	-5.027780e+001	-4.223240e+001	1.690492e+002
2745039000	-4.086984e+001	-8.735510e+001	2.845862e-003	-5.065277e+001	4.821352e-003	-5.068849e+001	-4.302338e+001	1.655387e+002
2767538500	-4.138376e+001	-9.299890e+001	2.944141e-003	-5.106272e+001	8.155727e-003	-5.110420e+001	-4.239333e+001	1.644297e+002
2790038000	-4.182035e+001	-8.761042e+001	4.643929e-003	-5.152204e+001	7.849215e-003	-5.150641e+001	-4.225941e+001	1.600559e+002
2812537500	-4.188137e+001	-8.048167e+001	6.758380e-004	-5.193363e+001	3.355569e-003	-5.193835e+001	-4.238359e+001	1.662953e+002
2835037000	-4.096970e+001	-8.167853e+001	5.273666e-004	-5.235635e+001	1.467986e-003	-5.235886e+001	-4.275262e+001	1.700407e+002
2857536500	-4.239097e+001	-9.093774e+001	3.786920e-003	-5.275835e+001	3.014230e-003	-5.275839e+001	-4.184781e+001	1.685903e+002
2880036000	-4.113350e+001	-9.158751e+001	4.919493e-004	-5.315600e+001	7.298643e-003	-5.317899e+001	-4.232876e+001	1.639809e+002
2902535500	-4.136514e+001	-9.227560e+001	-2.481821e-003	-5.354978e+001	8.976034e-003	-5.359458e+001	-4.223015e+001	1.603912e+002
2925035000	-4.195892e+001	-9.715374e+001	-4.770691e-005	-5.397992e+001	5.677456e-003	-5.398972e+001	-4.199272e+001	1.622930e+002
2947534500	-4.188031e+001	-9.586981e+001	-9.080334e-004	-5.439992e+001	5.832908e-003	-5.440885e+001	-4.113673e+001	1.654829e+002
2970034000	-4.168061e+001	-9.571678e+001	4.514082e-003	-5.481676e+001	2.962041e-003	-5.478038e+001	-4.016967e+001	1.672965e+002
2992533500	-4.049171e+001	-9.527823e+001	9.353306e-004	-5.521993e+001	5.101277e-003	-5.525608e+001	-4.097585e+001	1.698108e+002
3015033000	-4.129252e+001	-9.703333e+001	3.133168e-003	-5.565551e+001	9.556442e-003	-5.565455e+001	-4.105717e+001	1.631733e+002
3037532500	-4.079892e+001	-1.017515e+002	3.043912e-003	-5.607837e+001	8.322086e-003	-5.604393e+001	-4.024413e+001	1.649679e+002
3060032000	-4.065598e+001	-9.798309e+001	4.202053e-003	-5.649207e+001	1.043800e-002	-5.650511e+001	-4.161198e+001	1.613382e+002
3082531500	-4.066712e+001	-9.478640e+001	4.776225e-003	-5.690430e+001	7.336176e-003	-5.690409e+001	-4.121643e+001	1.663283e+002
3105031000	-4.077841e+001	-9.954435e+001	3.657861e-003	-5.733161e+001	9.637751e-003	-5.731936e+001	-4.055229e+001	1.588289e+002
3127530500	-4.149992e+001	-9.685914e+001	3.229623e-003	-5.774315e+001	7.297708e-003	-5.774835e+001	-4.054602e+001	1.643061e+002
3150030000	-4.115658e+001	-9.195368e+001	1.124509e-003	-5.817142e+001	3.884648e-003	-5.816264e+001	-4.018059e+001	1.660738e+002
3172529500	-4.146798e+001	-1.022958e+002	4.235358e-003	-5.858529e+001	5.900178e-003	-5.857141e+001	-4.131964e+001	1.620660e+002
3195029000	-4.189120e+001	-9.242339e+001	6.148732e-004	-5.904124e+001	7.965950e-003	-5.899893e+001	-4.086183e+001	1.557258e+002
3217528500	-4.222720e+001	-9.756225e+001	2.613842e-003	-5.942176e+001	5.966765e-003	-5.939631e+001	-4.104052e+001	1.635060e+002
3240028000	-4.210767e+001	-9.527445e+001	2.683402e-003	-5.981308e+001	3.166386e-003	-5.979951e+001	-4.155992e+001	1.656128e+002
3262527500	-4.169406e+001	-9.593177e+001	-9.592113e-004	-6.023359e+001	5.471668e-003	-6.022033e+001	-4.181503e+001	1.590347e+002
3285027000	-4.237320e+001	-1.050814e+002	7.021315e-003	-6.064278e+001	4.611149e-003	-6.067793e+001	-4.135399e+001	1.583355e+002
3307526500	-4.192680e+001	-9.683754e+001	1.486461e-003	-6.105553e+001	7.059967e-003	-6.104422e+001	-4.119786e+001	1.607538e+002
3330026000	-4.233110e+001	-9.727732e+001	2.179338e-003	-6.150431e+001	8.394871e-003	-6.149024e+001	-4.065644e+001	1.588985e+002
3352525500	-4.128342e+001	-9.905867e+001	8.631341e-004	-6.187916e+001	8.814073e-003	-6.188623e+001	-4.016821e+001	1.600312e+002
3375025000	-4.124173e+001	-1.027202e+002	2.521641e-003	-6.229662e+001	7.244870e-003	-6.230234e+001	-3.998127e+001	1.588409e+002
3397524500	-4.085275e+001	-9.840954e+001	8.307371e-004	-6.270553e+001	1.013055e-002	-6.272004e+001	-3.992731e+001	1.611760e+002
3420024000	-4.111247e+001	-9.687870e+001	-1.820282e-003	-6.314949e+001	6.433583e-003	-6.315697e+001	-3.963315e+001	1.616830e+002
