!Agilent Technologies,E5071C,MY46101151,A.11.34
!Date: Mon Sep 17 22:26:30 2018
!Data & Calibration Information:
!Freq	S22:SOLT1(ON)
!PortZ  Port2:50+j0
!Above PortZ is port z conversion or system Z0 setting when saving the data.
!When reading, reference impedance value at option line is always used.
# Hz S dB R 50
100000	1.141066e-002	-1.040657e-002
22599500	-3.886664e-003	-5.070108e-001
45099000	3.069744e-003	-1.042981e+000
67598500	4.976832e-004	-1.573413e+000
90098000	4.703738e-004	-2.090205e+000
112597500	-1.677260e-003	-2.592026e+000
135097000	2.081964e-004	-3.099853e+000
157596500	-2.436628e-003	-3.644211e+000
180096000	-2.428322e-003	-4.133965e+000
202595500	1.061106e-004	-4.648944e+000
225095000	-4.187309e-003	-5.163940e+000
247594500	-6.053261e-004	-5.667246e+000
270094000	7.761245e-004	-6.174104e+000
292593500	2.111873e-003	-6.728043e+000
315093000	1.177116e-003	-7.209688e+000
337592500	1.260882e-003	-7.745858e+000
360092000	-6.122759e-005	-8.251362e+000
382591500	2.263164e-003	-8.762931e+000
405091000	1.126199e-003	-9.295151e+000
427590500	6.793585e-004	-9.791672e+000
450090000	1.429276e-003	-1.033660e+001
472589500	-1.300167e-003	-1.080863e+001
495089000	-2.590884e-003	-1.131251e+001
517588500	1.533137e-003	-1.184877e+001
540088000	1.654674e-003	-1.237551e+001
562587500	2.894424e-003	-1.287046e+001
585087000	-4.084946e-004	-1.336639e+001
607586500	-5.663090e-004	-1.388382e+001
630086000	1.679670e-003	-1.440279e+001
652585500	-1.256637e-004	-1.491259e+001
675085000	-6.118625e-004	-1.544029e+001
697584500	-1.853679e-003	-1.595402e+001
720084000	1.509217e-003	-1.647234e+001
742583500	-2.016173e-003	-1.702885e+001
765083000	5.687484e-003	-1.750789e+001
787582500	1.477754e-003	-1.797184e+001
810082000	2.345927e-003	-1.851510e+001
832581500	-2.032637e-003	-1.902076e+001
855081000	3.071589e-004	-1.954713e+001
877580500	-3.887292e-004	-2.006955e+001
900080000	-5.409468e-004	-2.059147e+001
922579500	1.309141e-003	-2.109667e+001
945079000	-1.653175e-003	-2.162072e+001
967578500	4.486795e-003	-2.212332e+001
990078000	8.930920e-004	-2.262247e+001
1012577500	-1.584163e-003	-2.316740e+001
1035077000	7.565968e-004	-2.368642e+001
1057576500	4.682108e-003	-2.420429e+001
1080076000	1.902898e-003	-2.471330e+001
1102575500	2.465884e-003	-2.525098e+001
1125075000	9.604412e-004	-2.573812e+001
1147574500	3.607514e-003	-2.624252e+001
1170074000	3.027775e-003	-2.675811e+001
1192573500	-5.591135e-005	-2.729213e+001
1215073000	-3.018441e-003	-2.778096e+001
1237572500	-1.333709e-003	-2.834187e+001
1260072000	2.181713e-003	-2.884652e+001
1282571500	-1.769318e-003	-2.935939e+001
1305071000	-4.846418e-004	-2.988268e+001
1327570500	2.683312e-003	-3.038131e+001
1350070000	3.901734e-004	-3.088309e+001
1372569500	6.121290e-003	-3.145785e+001
1395069000	2.759863e-003	-3.194709e+001
1417568500	2.295080e-004	-3.245394e+001
1440068000	-1.529737e-003	-3.298788e+001
1462567500	1.099589e-003	-3.348115e+001
1485067000	-3.219573e-004	-3.402646e+001
1507566500	2.468928e-003	-3.453414e+001
1530066000	1.602133e-003	-3.502930e+001
1552565500	5.708336e-004	-3.554437e+001
1575065000	-3.407161e-003	-3.607247e+001
1597564500	6.078401e-004	-3.656067e+001
1620064000	3.389366e-003	-3.706864e+001
1642563500	-2.545649e-003	-3.757921e+001
1665063000	-6.936488e-004	-3.809650e+001
1687562500	2.059305e-003	-3.861713e+001
1710062000	9.670061e-004	-3.913653e+001
1732561500	-6.772355e-005	-3.965185e+001
1755061000	1.756926e-003	-4.017617e+001
1777560500	2.416357e-004	-4.066604e+001
1800060000	2.915591e-003	-4.119926e+001
1822559500	1.479851e-003	-4.175411e+001
1845059000	4.345343e-003	-4.223145e+001
1867558500	-1.341264e-003	-4.275165e+001
1890058000	3.320313e-003	-4.328988e+001
1912557500	2.790563e-005	-4.377816e+001
1935057000	3.807757e-004	-4.428901e+001
1957556500	-2.511961e-003	-4.481657e+001
1980056000	-9.343172e-004	-4.530781e+001
2002555500	-1.747401e-003	-4.584495e+001
2025055000	-4.175993e-003	-4.637329e+001
2047554500	1.417005e-003	-4.689166e+001
2070054000	-4.027440e-004	-4.739201e+001
2092553500	-1.601580e-003	-4.793515e+001
2115053000	-1.262008e-004	-4.842745e+001
2137552500	-7.455211e-004	-4.897053e+001
2160052000	-1.404600e-004	-4.946297e+001
2182551500	6.131793e-004	-5.000286e+001
2205051000	-2.088712e-003	-5.049493e+001
2227550500	-3.374722e-003	-5.100797e+001
2250050000	-1.479390e-003	-5.151139e+001
2272549500	-2.716819e-003	-5.201847e+001
2295049000	2.570569e-003	-5.252264e+001
2317548500	-1.653768e-003	-5.304152e+001
2340048000	-2.337452e-003	-5.356935e+001
2362547500	1.103556e-004	-5.407168e+001
2385047000	-3.619280e-004	-5.459439e+001
2407546500	-4.141114e-003	-5.509223e+001
2430046000	-3.537180e-003	-5.561339e+001
2452545500	-8.803170e-004	-5.612898e+001
2475045000	-2.272043e-003	-5.665263e+001
2497544500	-3.240310e-003	-5.716966e+001
2520044000	-4.168069e-003	-5.770532e+001
2542543500	-4.161259e-003	-5.823990e+001
2565043000	1.497546e-003	-5.873570e+001
2587542500	-2.965374e-003	-5.925347e+001
2610042000	-4.937379e-004	-5.976106e+001
2632541500	6.042058e-004	-6.025063e+001
2655041000	-8.113373e-004	-6.079972e+001
2677540500	-3.394382e-004	-6.125300e+001
2700040000	-3.078011e-003	-6.179916e+001
2722539500	-6.751064e-004	-6.229245e+001
2745039000	-3.718345e-003	-6.282686e+001
2767538500	-1.691282e-003	-6.333523e+001
2790038000	-5.138203e-003	-6.382687e+001
2812537500	-5.666019e-003	-6.436703e+001
2835037000	-7.095421e-003	-6.489608e+001
2857536500	-7.048944e-003	-6.541985e+001
2880036000	-3.707800e-003	-6.591697e+001
2902535500	-3.509687e-003	-6.644607e+001
2925035000	-3.110221e-003	-6.693267e+001
2947534500	-4.489594e-003	-6.746833e+001
2970034000	-4.720978e-003	-6.797438e+001
2992533500	-4.588493e-003	-6.847536e+001
3015033000	-4.430865e-003	-6.898137e+001
3037532500	-3.453554e-003	-6.949030e+001
3060032000	-2.836878e-003	-6.999655e+001
3082531500	-3.794205e-003	-7.053903e+001
3105031000	-2.203916e-003	-7.103832e+001
3127530500	-1.038384e-003	-7.155003e+001
3150030000	-1.685306e-003	-7.209495e+001
3172529500	-5.910953e-004	-7.259791e+001
3195029000	-9.138874e-003	-7.309863e+001
3217528500	-4.472124e-003	-7.362739e+001
3240028000	-3.417817e-003	-7.412905e+001
3262527500	-3.776724e-003	-7.463871e+001
3285027000	-2.152832e-003	-7.517111e+001
3307526500	-3.987096e-003	-7.570107e+001
3330026000	-6.734813e-003	-7.618822e+001
3352525500	-7.028310e-003	-7.670386e+001
3375025000	-3.628902e-003	-7.722944e+001
3397524500	9.909393e-005	-7.770811e+001
3420024000	-5.966165e-003	-7.823974e+001
3442523500	-8.601093e-003	-7.875376e+001
3465023000	-2.942313e-003	-7.926004e+001
3487522500	-5.648455e-003	-7.976980e+001
3510022000	-3.257787e-003	-8.029157e+001
3532521500	-6.296363e-003	-8.079776e+001
3555021000	-7.801322e-003	-8.132317e+001
3577520500	-5.709264e-003	-8.182432e+001
3600020000	-8.166445e-003	-8.232455e+001
3622519500	-8.744994e-003	-8.285124e+001
3645019000	-5.899367e-003	-8.339092e+001
3667518500	-9.068456e-003	-8.388687e+001
3690018000	-7.862565e-003	-8.442535e+001
3712517500	-7.698831e-003	-8.492274e+001
3735017000	-4.284645e-003	-8.544941e+001
3757516500	-3.493211e-003	-8.593331e+001
3780016000	-8.494037e-003	-8.646619e+001
3802515500	-7.516824e-003	-8.696799e+001
3825015000	-9.792846e-003	-8.749524e+001
3847514500	-6.984592e-003	-8.803009e+001
3870014000	-9.526093e-003	-8.850379e+001
3892513500	-7.239143e-003	-8.903022e+001
3915013000	-7.550165e-003	-8.956578e+001
3937512500	-2.850761e-003	-9.007259e+001
3960012000	-1.021634e-002	-9.059047e+001
3982511500	-4.961428e-003	-9.110965e+001
4005011000	-7.888420e-003	-9.164810e+001
4027510500	-9.182466e-003	-9.215442e+001
4050010000	-9.134738e-003	-9.264391e+001
4072509500	-7.210862e-003	-9.316286e+001
4095009000	-8.709136e-003	-9.370411e+001
4117508500	-1.029292e-002	-9.421174e+001
4140008000	-1.080250e-002	-9.472641e+001
4162507500	-1.203725e-002	-9.524243e+001
4185007000	-1.219047e-002	-9.577832e+001
4207506500	-1.071492e-002	-9.630083e+001
4230006000	-9.127198e-003	-9.680304e+001
4252505500	-1.073243e-002	-9.731387e+001
4275005000	-9.789099e-003	-9.782875e+001
4297504500	-9.402140e-003	-9.835836e+001
4320004000	-1.139613e-002	-9.886839e+001
4342503500	-1.031450e-002	-9.937741e+001
4365003000	-1.175214e-002	-9.991306e+001
4387502500	-1.145591e-002	-1.004119e+002
4410002000	-9.731533e-003	-1.009566e+002
4432501500	-1.407556e-002	-1.014838e+002
4455001000	-1.322569e-002	-1.019987e+002
4477500500	-9.461907e-003	-1.024989e+002
4500000000	-1.215331e-002	-1.030089e+002
