!Agilent Technologies,E5071C,MY46101151,A.11.34
!Date: Mon Sep 17 23:11:27 2018
!Data & Calibration Information:
!Freq	S11:SOLT2(ON)	S21:SOLT2(ON)	S12:SOLT2(ON)	S22:SOLT2(ON)
!PortZ  Port1:50+j0    Port2:50+j0
!Above PortZ is port z conversion or system Z0 setting when saving the data.
!When reading, reference impedance value at option line is always used.
# Hz S dB R 50
100000	-3.333018e+001	-1.106425e+002	-7.315309e-003	2.440763e+001	6.536106e-002	2.446013e+001	-3.661407e+001	-1.056313e+002
22599500	-5.623701e+001	8.033789e+001	8.012944e-003	-2.049369e+000	2.889801e-003	-2.049521e+000	-4.900684e+001	9.827371e+001
45099000	-5.219636e+001	-1.405228e+002	3.958038e-003	-3.823229e+000	1.062746e-003	-3.876773e+000	-5.633880e+001	-1.247013e+002
67598500	-5.434741e+001	-1.179223e+002	-3.085771e-003	-5.757767e+000	-9.210397e-004	-5.714580e+000	-4.898618e+001	-1.156954e+002
90098000	-4.684698e+001	-1.111976e+002	-3.357112e-003	-7.576055e+000	-1.516472e-003	-7.588629e+000	-4.575088e+001	-1.232026e+002
112597500	-4.560128e+001	-1.076238e+002	-1.597428e-002	-9.456133e+000	-1.137353e-002	-9.455465e+000	-4.484134e+001	-1.211276e+002
135097000	-4.574103e+001	-1.141013e+002	-1.374620e-002	-1.132241e+001	-1.342448e-002	-1.129752e+001	-4.408553e+001	-1.118692e+002
157596500	-4.416952e+001	-1.084837e+002	-1.620733e-002	-1.316233e+001	-1.506158e-002	-1.314229e+001	-4.337510e+001	-1.087291e+002
180096000	-4.210018e+001	-1.177940e+002	-1.323919e-002	-1.501227e+001	-1.717532e-002	-1.501560e+001	-4.202599e+001	-1.075970e+002
202595500	-4.089210e+001	-1.160336e+002	-2.206569e-002	-1.687419e+001	-1.665924e-002	-1.689738e+001	-4.040453e+001	-1.204498e+002
225095000	-4.016483e+001	-1.173850e+002	-2.084370e-002	-1.873260e+001	-2.089920e-002	-1.871024e+001	-3.961323e+001	-1.183033e+002
247594500	-3.882127e+001	-1.216782e+002	-2.495342e-002	-2.056834e+001	-2.479695e-002	-2.051816e+001	-3.861128e+001	-1.217227e+002
270094000	-3.790305e+001	-1.194044e+002	-2.684876e-002	-2.240782e+001	-2.671583e-002	-2.239721e+001	-3.850940e+001	-1.211283e+002
292593500	-3.691866e+001	-1.174694e+002	-3.377067e-002	-2.426512e+001	-2.800071e-002	-2.427443e+001	-3.785992e+001	-1.229793e+002
315093000	-3.648433e+001	-1.217780e+002	-3.265182e-002	-2.608811e+001	-3.311602e-002	-2.611975e+001	-3.703571e+001	-1.239629e+002
337592500	-3.657402e+001	-1.245015e+002	-3.781842e-002	-2.795926e+001	-3.682462e-002	-2.796789e+001	-3.656888e+001	-1.260590e+002
360092000	-3.604504e+001	-1.225739e+002	-4.323879e-002	-2.982520e+001	-4.247771e-002	-2.980711e+001	-3.560863e+001	-1.254744e+002
382591500	-3.555970e+001	-1.244887e+002	-5.042495e-002	-3.172234e+001	-4.351668e-002	-3.173329e+001	-3.501282e+001	-1.288392e+002
405091000	-3.504860e+001	-1.219492e+002	-6.459446e-002	-3.353198e+001	-6.331377e-002	-3.354477e+001	-3.442773e+001	-1.264179e+002
427590500	-3.411058e+001	-1.240778e+002	-6.459399e-002	-3.530501e+001	-6.263475e-002	-3.530842e+001	-3.360898e+001	-1.300380e+002
450090000	-3.302835e+001	-1.277481e+002	-6.006093e-002	-3.713764e+001	-6.275254e-002	-3.709609e+001	-3.321110e+001	-1.319957e+002
472589500	-3.316589e+001	-1.312237e+002	-6.028409e-002	-3.899783e+001	-5.973058e-002	-3.897128e+001	-3.286808e+001	-1.363216e+002
495089000	-3.226237e+001	-1.321518e+002	-6.278587e-002	-4.083245e+001	-6.324770e-002	-4.081820e+001	-3.209045e+001	-1.374916e+002
517588500	-3.234689e+001	-1.362631e+002	-6.189142e-002	-4.269633e+001	-6.466697e-002	-4.268044e+001	-3.212831e+001	-1.420075e+002
540088000	-3.191548e+001	-1.373498e+002	-6.661347e-002	-4.454800e+001	-6.784502e-002	-4.454611e+001	-3.161043e+001	-1.416281e+002
562587500	-3.152239e+001	-1.393371e+002	-6.794988e-002	-4.639861e+001	-6.691812e-002	-4.639413e+001	-3.133710e+001	-1.451875e+002
585087000	-3.114850e+001	-1.410096e+002	-7.335671e-002	-4.822560e+001	-7.509059e-002	-4.826767e+001	-3.106707e+001	-1.448723e+002
607586500	-3.120571e+001	-1.414188e+002	-8.074180e-002	-5.008657e+001	-7.600357e-002	-5.008827e+001	-3.071649e+001	-1.469302e+002
630086000	-3.109985e+001	-1.440511e+002	-8.313559e-002	-5.191808e+001	-8.200921e-002	-5.192126e+001	-3.072949e+001	-1.502869e+002
652585500	-3.074860e+001	-1.462479e+002	-8.579317e-002	-5.375384e+001	-8.316162e-002	-5.373648e+001	-3.088225e+001	-1.534525e+002
675085000	-3.041358e+001	-1.483940e+002	-8.579631e-002	-5.557114e+001	-8.030632e-002	-5.560012e+001	-3.036525e+001	-1.537874e+002
697584500	-3.017987e+001	-1.494128e+002	-8.890690e-002	-5.742145e+001	-8.350965e-002	-5.746009e+001	-3.008160e+001	-1.550645e+002
720084000	-2.991661e+001	-1.513495e+002	-9.380555e-002	-5.927348e+001	-8.961267e-002	-5.928680e+001	-2.978758e+001	-1.579132e+002
742583500	-2.984866e+001	-1.533124e+002	-9.691522e-002	-6.110976e+001	-9.526098e-002	-6.114281e+001	-2.988697e+001	-1.586054e+002
765083000	-2.968305e+001	-1.559315e+002	-1.014771e-001	-6.297987e+001	-9.667604e-002	-6.297796e+001	-2.938256e+001	-1.610153e+002
787582500	-2.914867e+001	-1.546589e+002	-1.108333e-001	-6.480059e+001	-1.044416e-001	-6.482334e+001	-2.939126e+001	-1.629139e+002
810082000	-2.869059e+001	-1.581839e+002	-1.091207e-001	-6.663353e+001	-1.093110e-001	-6.663831e+001	-2.896741e+001	-1.634504e+002
832581500	-2.870927e+001	-1.600842e+002	-1.125789e-001	-6.847344e+001	-1.083718e-001	-6.847300e+001	-2.873721e+001	-1.657801e+002
855081000	-2.867735e+001	-1.625205e+002	-1.176192e-001	-7.035822e+001	-1.118447e-001	-7.032554e+001	-2.857690e+001	-1.664688e+002
877580500	-2.820174e+001	-1.631374e+002	-1.150692e-001	-7.217477e+001	-1.142011e-001	-7.216099e+001	-2.833043e+001	-1.689934e+002
900080000	-2.823579e+001	-1.651131e+002	-1.226556e-001	-7.402026e+001	-1.203892e-001	-7.399338e+001	-2.825040e+001	-1.708528e+002
922579500	-2.808239e+001	-1.668024e+002	-1.270728e-001	-7.585154e+001	-1.214692e-001	-7.581857e+001	-2.804766e+001	-1.722206e+002
945079000	-2.774560e+001	-1.707944e+002	-1.298435e-001	-7.768659e+001	-1.245229e-001	-7.762724e+001	-2.799713e+001	-1.741742e+002
967578500	-2.778144e+001	-1.729209e+002	-1.316968e-001	-7.953259e+001	-1.256338e-001	-7.948832e+001	-2.788244e+001	-1.792895e+002
990078000	-2.744356e+001	-1.751172e+002	-1.311596e-001	-8.138799e+001	-1.277839e-001	-8.133037e+001	-2.772904e+001	-1.797729e+002
1012577500	-2.756279e+001	-1.760085e+002	-1.358734e-001	-8.325199e+001	-1.275841e-001	-8.319489e+001	-2.750033e+001	1.781371e+002
1035077000	-2.755974e+001	-1.779251e+002	-1.410945e-001	-8.509792e+001	-1.336392e-001	-8.503782e+001	-2.734380e+001	1.783817e+002
1057576500	-2.727967e+001	1.796805e+002	-1.411853e-001	-8.694645e+001	-1.378986e-001	-8.689972e+001	-2.746832e+001	1.761130e+002
1080076000	-2.708836e+001	1.776579e+002	-1.434702e-001	-8.878525e+001	-1.385292e-001	-8.878967e+001	-2.740244e+001	1.734867e+002
1102575500	-2.693445e+001	1.746468e+002	-1.485800e-001	-9.063520e+001	-1.435908e-001	-9.062620e+001	-2.714162e+001	1.718807e+002
1125075000	-2.675931e+001	1.735454e+002	-1.461117e-001	-9.249391e+001	-1.447613e-001	-9.246194e+001	-2.701281e+001	1.708554e+002
1147574500	-2.680227e+001	1.705124e+002	-1.530572e-001	-9.435042e+001	-1.486789e-001	-9.432644e+001	-2.686118e+001	1.675858e+002
1170074000	-2.666469e+001	1.698404e+002	-1.565512e-001	-9.618806e+001	-1.536753e-001	-9.618827e+001	-2.699440e+001	1.649787e+002
1192573500	-2.660138e+001	1.679785e+002	-1.622676e-001	-9.805649e+001	-1.598386e-001	-9.800755e+001	-2.690818e+001	1.636146e+002
1215073000	-2.646430e+001	1.669151e+002	-1.666871e-001	-9.990827e+001	-1.657191e-001	-9.985227e+001	-2.684999e+001	1.617798e+002
1237572500	-2.654532e+001	1.668804e+002	-1.787436e-001	-1.017561e+002	-1.721652e-001	-1.017370e+002	-2.678883e+001	1.614188e+002
1260072000	-2.649718e+001	1.644224e+002	-1.815917e-001	-1.036174e+002	-1.759543e-001	-1.035855e+002	-2.667380e+001	1.597190e+002
1282571500	-2.657372e+001	1.628491e+002	-1.851248e-001	-1.054839e+002	-1.877392e-001	-1.054501e+002	-2.701587e+001	1.592307e+002
1305071000	-2.635204e+001	1.614030e+002	-1.934626e-001	-1.073281e+002	-1.894552e-001	-1.072837e+002	-2.674816e+001	1.579327e+002
1327570500	-2.646906e+001	1.606768e+002	-2.014539e-001	-1.091651e+002	-1.982084e-001	-1.091668e+002	-2.676806e+001	1.562176e+002
1350070000	-2.634338e+001	1.593804e+002	-2.096098e-001	-1.109531e+002	-2.058559e-001	-1.110041e+002	-2.666212e+001	1.554438e+002
1372569500	-2.620234e+001	1.577316e+002	-2.170257e-001	-1.127706e+002	-2.145629e-001	-1.127901e+002	-2.644389e+001	1.542470e+002
1395069000	-2.629325e+001	1.549434e+002	-2.226904e-001	-1.145910e+002	-2.184843e-001	-1.145858e+002	-2.624817e+001	1.536899e+002
1417568500	-2.610905e+001	1.525314e+002	-2.257415e-001	-1.163999e+002	-2.250005e-001	-1.164252e+002	-2.634381e+001	1.519047e+002
1440068000	-2.584368e+001	1.504116e+002	-2.263270e-001	-1.182568e+002	-2.182324e-001	-1.182743e+002	-2.608815e+001	1.500037e+002
1462567500	-2.586811e+001	1.484306e+002	-2.293706e-001	-1.201244e+002	-2.257945e-001	-1.201428e+002	-2.617902e+001	1.480501e+002
1485067000	-2.613491e+001	1.462739e+002	-2.342476e-001	-1.219830e+002	-2.276058e-001	-1.219951e+002	-2.588888e+001	1.462389e+002
1507566500	-2.583923e+001	1.446427e+002	-2.349742e-001	-1.238259e+002	-2.301256e-001	-1.238857e+002	-2.595598e+001	1.434762e+002
1530066000	-2.592864e+001	1.430939e+002	-2.409811e-001	-1.257043e+002	-2.367800e-001	-1.257580e+002	-2.611650e+001	1.417446e+002
1552565500	-2.586569e+001	1.403361e+002	-2.480794e-001	-1.275742e+002	-2.473561e-001	-1.275830e+002	-2.607857e+001	1.408925e+002
1575065000	-2.601019e+001	1.393201e+002	-2.544454e-001	-1.294591e+002	-2.568463e-001	-1.294546e+002	-2.622537e+001	1.409482e+002
1597564500	-2.609347e+001	1.383725e+002	-2.638516e-001	-1.313277e+002	-2.648659e-001	-1.313255e+002	-2.606893e+001	1.414822e+002
1620064000	-2.604000e+001	1.366288e+002	-2.825922e-001	-1.331252e+002	-2.789310e-001	-1.331253e+002	-2.595913e+001	1.407289e+002
1642563500	-2.576037e+001	1.361359e+002	-2.871627e-001	-1.348623e+002	-2.854561e-001	-1.348974e+002	-2.574835e+001	1.384082e+002
1665063000	-2.586399e+001	1.328220e+002	-2.910831e-001	-1.367213e+002	-2.863682e-001	-1.367616e+002	-2.573584e+001	1.366387e+002
1687562500	-2.565751e+001	1.316022e+002	-2.978599e-001	-1.385104e+002	-2.940619e-001	-1.385558e+002	-2.559971e+001	1.361546e+002
1710062000	-2.537520e+001	1.289831e+002	-2.945652e-001	-1.403359e+002	-2.926373e-001	-1.403239e+002	-2.550725e+001	1.338956e+002
1732561500	-2.559124e+001	1.256811e+002	-2.943847e-001	-1.422155e+002	-2.965411e-001	-1.422211e+002	-2.562832e+001	1.321691e+002
1755061000	-2.559911e+001	1.241806e+002	-2.956275e-001	-1.440495e+002	-2.967805e-001	-1.440499e+002	-2.549636e+001	1.309839e+002
1777560500	-2.553354e+001	1.232854e+002	-2.997298e-001	-1.458711e+002	-2.990826e-001	-1.459204e+002	-2.552718e+001	1.281203e+002
1800060000	-2.574423e+001	1.192108e+002	-3.043939e-001	-1.477709e+002	-3.017561e-001	-1.477851e+002	-2.555519e+001	1.274183e+002
1822559500	-2.586686e+001	1.184284e+002	-3.147072e-001	-1.496156e+002	-3.088708e-001	-1.496465e+002	-2.555733e+001	1.270625e+002
1845059000	-2.591361e+001	1.168620e+002	-3.130828e-001	-1.514894e+002	-3.133826e-001	-1.514945e+002	-2.553505e+001	1.266617e+002
1867558500	-2.598561e+001	1.161580e+002	-3.295623e-001	-1.533622e+002	-3.229299e-001	-1.533730e+002	-2.561849e+001	1.255976e+002
1890058000	-2.586441e+001	1.141856e+002	-3.361111e-001	-1.552188e+002	-3.348567e-001	-1.552206e+002	-2.562589e+001	1.247500e+002
1912557500	-2.601085e+001	1.143684e+002	-3.462242e-001	-1.570294e+002	-3.448774e-001	-1.570350e+002	-2.576335e+001	1.236028e+002
1935057000	-2.609603e+001	1.129990e+002	-3.557479e-001	-1.588339e+002	-3.509549e-001	-1.588534e+002	-2.547187e+001	1.231032e+002
1957556500	-2.595713e+001	1.096055e+002	-3.580067e-001	-1.607076e+002	-3.600890e-001	-1.607145e+002	-2.541969e+001	1.212849e+002
1980056000	-2.605386e+001	1.105835e+002	-3.712885e-001	-1.625053e+002	-3.688061e-001	-1.625391e+002	-2.543349e+001	1.218203e+002
2002555500	-2.594199e+001	1.083691e+002	-3.781482e-001	-1.643022e+002	-3.776882e-001	-1.643593e+002	-2.531671e+001	1.204342e+002
2025055000	-2.612456e+001	1.070536e+002	-3.849891e-001	-1.660888e+002	-3.828746e-001	-1.661227e+002	-2.499121e+001	1.179489e+002
2047554500	-2.581893e+001	1.029893e+002	-3.865140e-001	-1.679431e+002	-3.839193e-001	-1.679289e+002	-2.496843e+001	1.165071e+002
2070054000	-2.586083e+001	1.010714e+002	-3.884860e-001	-1.697285e+002	-3.851206e-001	-1.697314e+002	-2.496785e+001	1.153588e+002
2092553500	-2.575365e+001	9.917031e+001	-3.883442e-001	-1.715433e+002	-3.876259e-001	-1.715633e+002	-2.467128e+001	1.127486e+002
2115053000	-2.564636e+001	9.575654e+001	-3.848177e-001	-1.733765e+002	-3.793265e-001	-1.733892e+002	-2.478555e+001	1.111257e+002
2137552500	-2.564587e+001	9.201809e+001	-3.821941e-001	-1.751942e+002	-3.811453e-001	-1.752022e+002	-2.495917e+001	1.105140e+002
2160052000	-2.599857e+001	9.078217e+001	-3.828886e-001	-1.770740e+002	-3.727367e-001	-1.770688e+002	-2.482355e+001	1.086762e+002
2182551500	-2.599292e+001	8.710874e+001	-3.818246e-001	-1.789258e+002	-3.771313e-001	-1.789482e+002	-2.500093e+001	1.053353e+002
2205051000	-2.611292e+001	8.513580e+001	-3.800750e-001	1.791684e+002	-3.762946e-001	1.792015e+002	-2.525396e+001	1.056188e+002
2227550500	-2.627104e+001	8.162538e+001	-3.798975e-001	1.773233e+002	-3.778060e-001	1.772953e+002	-2.538041e+001	1.041520e+002
2250050000	-2.649388e+001	7.818117e+001	-3.796858e-001	1.753980e+002	-3.814216e-001	1.754026e+002	-2.578089e+001	1.040926e+002
2272549500	-2.690279e+001	7.643700e+001	-3.853128e-001	1.735289e+002	-3.827407e-001	1.734997e+002	-2.580485e+001	1.037700e+002
2295049000	-2.725050e+001	7.394340e+001	-3.920555e-001	1.716149e+002	-3.851388e-001	1.716128e+002	-2.592637e+001	1.044246e+002
2317548500	-2.743416e+001	6.919284e+001	-4.031140e-001	1.697088e+002	-3.988815e-001	1.697042e+002	-2.613964e+001	1.037415e+002
2340048000	-2.783817e+001	6.979087e+001	-4.169844e-001	1.678838e+002	-4.150961e-001	1.678581e+002	-2.597244e+001	1.032827e+002
2362547500	-2.784960e+001	6.945252e+001	-4.259508e-001	1.660598e+002	-4.255295e-001	1.660454e+002	-2.592814e+001	1.041977e+002
2385047000	-2.791211e+001	6.578764e+001	-4.308945e-001	1.641839e+002	-4.268355e-001	1.641827e+002	-2.557077e+001	1.023350e+002
2407546500	-2.798678e+001	6.528320e+001	-4.359921e-001	1.623725e+002	-4.317568e-001	1.623592e+002	-2.568501e+001	1.028343e+002
2430046000	-2.814680e+001	6.283467e+001	-4.421434e-001	1.605326e+002	-4.359326e-001	1.604907e+002	-2.560664e+001	1.008283e+002
2452545500	-2.840778e+001	5.968539e+001	-4.464921e-001	1.586565e+002	-4.378756e-001	1.586492e+002	-2.570725e+001	1.009373e+002
2475045000	-2.844838e+001	5.968083e+001	-4.487542e-001	1.568162e+002	-4.459030e-001	1.568182e+002	-2.560706e+001	1.004678e+002
2497544500	-2.836476e+001	5.531885e+001	-4.512411e-001	1.549439e+002	-4.501846e-001	1.549723e+002	-2.560095e+001	9.944028e+001
2520044000	-2.883098e+001	5.358429e+001	-4.559107e-001	1.531434e+002	-4.544833e-001	1.531016e+002	-2.563879e+001	9.623143e+001
2542543500	-2.902784e+001	5.134054e+001	-4.548062e-001	1.512945e+002	-4.495827e-001	1.512725e+002	-2.558363e+001	9.646349e+001
2565043000	-2.920197e+001	4.563898e+001	-4.564515e-001	1.493924e+002	-4.514314e-001	1.493849e+002	-2.583019e+001	9.500963e+001
2587542500	-2.963271e+001	4.250472e+001	-4.514250e-001	1.475397e+002	-4.488992e-001	1.475372e+002	-2.590531e+001	9.531087e+001
2610042000	-3.015029e+001	3.627475e+001	-4.504447e-001	1.456145e+002	-4.465331e-001	1.456221e+002	-2.627395e+001	9.418319e+001
2632541500	-3.066842e+001	3.309232e+001	-4.596968e-001	1.437185e+002	-4.521366e-001	1.437059e+002	-2.638903e+001	9.491559e+001
2655041000	-3.149979e+001	2.905967e+001	-4.646314e-001	1.418215e+002	-4.585051e-001	1.418079e+002	-2.661363e+001	9.650482e+001
2677540500	-3.197480e+001	2.689994e+001	-4.680886e-001	1.398905e+002	-4.652528e-001	1.398862e+002	-2.662540e+001	9.779846e+001
2700040000	-3.262299e+001	2.072936e+001	-4.818610e-001	1.380056e+002	-4.676093e-001	1.379826e+002	-2.660891e+001	9.634921e+001
2722539500	-3.352639e+001	1.564310e+001	-4.894525e-001	1.360662e+002	-4.776294e-001	1.360735e+002	-2.661536e+001	9.936481e+001
2745039000	-3.402629e+001	1.264431e+001	-4.943421e-001	1.341442e+002	-4.890101e-001	1.341297e+002	-2.660928e+001	9.887921e+001
2767538500	-3.561372e+001	1.255171e+001	-5.130140e-001	1.322448e+002	-5.064262e-001	1.322420e+002	-2.651444e+001	1.013342e+002
2790038000	-3.617253e+001	1.499452e+001	-5.267865e-001	1.303110e+002	-5.242416e-001	1.303157e+002	-2.637459e+001	1.011463e+002
2812537500	-3.784187e+001	1.994522e+001	-5.451167e-001	1.284658e+002	-5.454237e-001	1.284656e+002	-2.606260e+001	1.011351e+002
2835037000	-3.907256e+001	2.414858e+001	-5.673114e-001	1.266220e+002	-5.664127e-001	1.266002e+002	-2.593202e+001	1.002897e+002
2857536500	-3.871244e+001	2.806655e+001	-5.907920e-001	1.247898e+002	-5.870669e-001	1.247862e+002	-2.531054e+001	9.881842e+001
2880036000	-3.967788e+001	4.038288e+001	-6.144644e-001	1.230578e+002	-6.027054e-001	1.230245e+002	-2.513820e+001	9.701604e+001
2902535500	-3.814364e+001	4.575601e+001	-6.189413e-001	1.213395e+002	-6.128258e-001	1.212893e+002	-2.491389e+001	9.455588e+001
2925035000	-3.854490e+001	4.156877e+001	-6.239771e-001	1.196158e+002	-6.148928e-001	1.195567e+002	-2.498700e+001	9.263446e+001
2947534500	-3.785168e+001	3.610753e+001	-6.199987e-001	1.178242e+002	-6.136808e-001	1.178044e+002	-2.506072e+001	8.974014e+001
2970034000	-3.733718e+001	2.424497e+001	-6.081503e-001	1.160067e+002	-6.074135e-001	1.160224e+002	-2.513340e+001	8.840516e+001
2992533500	-3.779501e+001	1.755170e+001	-5.941087e-001	1.142011e+002	-5.932913e-001	1.141800e+002	-2.528664e+001	8.694504e+001
3015033000	-3.907390e+001	4.642428e+000	-5.885832e-001	1.123025e+002	-5.797081e-001	1.122950e+002	-2.537583e+001	8.621683e+001
3037532500	-3.913888e+001	-1.504061e+000	-5.777065e-001	1.103577e+002	-5.767538e-001	1.103861e+002	-2.573068e+001	8.542865e+001
3060032000	-4.067497e+001	-1.799500e+001	-5.749080e-001	1.084988e+002	-5.731784e-001	1.084620e+002	-2.605964e+001	8.374560e+001
3082531500	-4.037479e+001	-3.396803e+001	-5.704494e-001	1.065098e+002	-5.661262e-001	1.065543e+002	-2.609548e+001	8.523028e+001
3105031000	-4.033624e+001	-4.252040e+001	-5.716297e-001	1.045623e+002	-5.657294e-001	1.045481e+002	-2.642983e+001	8.485460e+001
3127530500	-4.112417e+001	-5.954830e+001	-5.776573e-001	1.026397e+002	-5.754237e-001	1.026122e+002	-2.649820e+001	8.773431e+001
3150030000	-4.279133e+001	-7.774763e+001	-5.906460e-001	1.006945e+002	-5.858258e-001	1.006790e+002	-2.626731e+001	8.747088e+001
3172529500	-4.469914e+001	-8.961844e+001	-6.013145e-001	9.878159e+001	-5.989574e-001	9.877825e+001	-2.620057e+001	8.848956e+001
3195029000	-4.458703e+001	-1.180622e+002	-6.176785e-001	9.686217e+001	-6.092466e-001	9.689171e+001	-2.608309e+001	8.808364e+001
3217528500	-4.666089e+001	-1.278252e+002	-6.249167e-001	9.499691e+001	-6.227264e-001	9.500509e+001	-2.603628e+001	8.785329e+001
3240028000	-4.733817e+001	-1.435211e+002	-6.425298e-001	9.312616e+001	-6.320348e-001	9.313858e+001	-2.561364e+001	8.660057e+001
3262527500	-4.792963e+001	-1.476596e+002	-6.538631e-001	9.130262e+001	-6.457507e-001	9.132736e+001	-2.546771e+001	8.540490e+001
3285027000	-4.968026e+001	-1.673773e+002	-6.562926e-001	8.949585e+001	-6.532757e-001	8.951034e+001	-2.533919e+001	8.366280e+001
3307526500	-4.980942e+001	-1.633257e+002	-6.587717e-001	8.771237e+001	-6.535857e-001	8.770222e+001	-2.538518e+001	8.155844e+001
3330026000	-4.832034e+001	-1.462943e+002	-6.549838e-001	8.586771e+001	-6.502288e-001	8.588231e+001	-2.551889e+001	7.945901e+001
3352525500	-4.636663e+001	-1.304208e+002	-6.438213e-001	8.406621e+001	-6.377348e-001	8.403437e+001	-2.568017e+001	7.745081e+001
3375025000	-4.402643e+001	-1.327776e+002	-6.404987e-001	8.214465e+001	-6.332752e-001	8.216041e+001	-2.593307e+001	7.636692e+001
3397524500	-4.280521e+001	-1.436351e+002	-6.345843e-001	8.027052e+001	-6.265835e-001	8.024835e+001	-2.612802e+001	7.605262e+001
