!Agilent Technologies,E5071C,MY46101151,A.11.34
!Date: Mon Sep 17 23:16:55 2018
!Data & Calibration Information:
!Freq	S11:SOLT2(ON)	S21:SOLT2(ON)	S12:SOLT2(ON)	S22:SOLT2(ON)
!PortZ  Port1:50+j0    Port2:50+j0
!Above PortZ is port z conversion or system Z0 setting when saving the data.
!When reading, reference impedance value at option line is always used.
# Hz S dB R 50
100000	-1.449707e-001	2.524132e+001	-6.918074e+001	-1.070029e+002	-7.451206e+001	1.100845e+002	1.097288e-002	2.543117e+001
22599500	4.176259e-003	-2.105495e+000	-6.115703e+001	8.846575e+001	-6.162625e+001	8.502494e+001	6.869565e-003	-1.990400e+000
45099000	-2.473296e-003	-4.151750e+000	-5.528574e+001	8.372598e+001	-5.523697e+001	8.652233e+001	-2.563047e-003	-3.918373e+000
67598500	-7.638697e-003	-6.258425e+000	-5.152508e+001	8.235236e+001	-5.173948e+001	8.358770e+001	-4.687369e-003	-5.901600e+000
90098000	-9.462257e-003	-8.269275e+000	-4.929186e+001	8.111535e+001	-4.922379e+001	8.117609e+001	-9.928689e-003	-7.832597e+000
112597500	-2.135562e-002	-1.030638e+001	-4.733685e+001	7.947137e+001	-4.737249e+001	7.972430e+001	-1.713169e-002	-9.761069e+000
135097000	-2.031013e-002	-1.233372e+001	-4.572463e+001	7.771515e+001	-4.581980e+001	7.753557e+001	-2.002603e-002	-1.171545e+001
157596500	-2.615781e-002	-1.438254e+001	-4.437026e+001	7.503346e+001	-4.446027e+001	7.571861e+001	-2.060091e-002	-1.361036e+001
180096000	-2.885215e-002	-1.643210e+001	-4.320890e+001	7.349615e+001	-4.326306e+001	7.362425e+001	-2.528760e-002	-1.555678e+001
202595500	-3.816941e-002	-1.844601e+001	-4.234767e+001	7.143082e+001	-4.234369e+001	7.139114e+001	-2.991858e-002	-1.748166e+001
225095000	-4.229161e-002	-2.048393e+001	-4.126968e+001	6.978390e+001	-4.142899e+001	6.904402e+001	-4.170719e-002	-1.938791e+001
247594500	-4.535757e-002	-2.253145e+001	-4.056827e+001	6.774209e+001	-4.055846e+001	6.730533e+001	-3.688734e-002	-2.131945e+001
270094000	-4.329685e-002	-2.453319e+001	-3.980871e+001	6.548247e+001	-3.971021e+001	6.576341e+001	-4.109427e-002	-2.327333e+001
292593500	-5.372081e-002	-2.654825e+001	-3.910187e+001	6.329591e+001	-3.911677e+001	6.347026e+001	-4.542485e-002	-2.517490e+001
315093000	-5.456664e-002	-2.861562e+001	-3.849694e+001	6.180796e+001	-3.848077e+001	6.181026e+001	-4.965086e-002	-2.711596e+001
337592500	-6.247181e-002	-3.066396e+001	-3.789445e+001	5.977730e+001	-3.789425e+001	5.950214e+001	-5.392858e-002	-2.901132e+001
360092000	-6.390477e-002	-3.269337e+001	-3.730498e+001	5.751703e+001	-3.733562e+001	5.757288e+001	-5.613315e-002	-3.096079e+001
382591500	-7.201138e-002	-3.472062e+001	-3.679765e+001	5.551600e+001	-3.680770e+001	5.552384e+001	-6.066615e-002	-3.285516e+001
405091000	-7.859708e-002	-3.674529e+001	-3.628978e+001	5.346982e+001	-3.628826e+001	5.334102e+001	-6.581180e-002	-3.477108e+001
427590500	-8.222196e-002	-3.876488e+001	-3.585167e+001	5.166067e+001	-3.589597e+001	5.176261e+001	-7.221808e-002	-3.668467e+001
450090000	-7.950669e-002	-4.080880e+001	-3.540655e+001	4.964215e+001	-3.541774e+001	4.963858e+001	-6.743341e-002	-3.857959e+001
472589500	-9.029995e-002	-4.283950e+001	-3.494608e+001	4.778174e+001	-3.498069e+001	4.777055e+001	-7.812437e-002	-4.052271e+001
495089000	-9.165557e-002	-4.491495e+001	-3.456043e+001	4.560902e+001	-3.459137e+001	4.582006e+001	-8.050216e-002	-4.241520e+001
517588500	-9.808885e-002	-4.696064e+001	-3.418287e+001	4.382080e+001	-3.423613e+001	4.383642e+001	-8.305365e-002	-4.432326e+001
540088000	-1.060595e-001	-4.897739e+001	-3.384201e+001	4.191621e+001	-3.386094e+001	4.182416e+001	-9.175840e-002	-4.625941e+001
562587500	-1.063683e-001	-5.104816e+001	-3.351063e+001	3.995620e+001	-3.350418e+001	3.970589e+001	-9.153205e-002	-4.813166e+001
585087000	-1.104585e-001	-5.308640e+001	-3.316987e+001	3.787947e+001	-3.319319e+001	3.794124e+001	-9.388159e-002	-5.006027e+001
607586500	-1.164320e-001	-5.510872e+001	-3.286053e+001	3.624615e+001	-3.284408e+001	3.603794e+001	-9.944526e-002	-5.194156e+001
630086000	-1.178313e-001	-5.716036e+001	-3.249437e+001	3.435130e+001	-3.253549e+001	3.414484e+001	-1.038650e-001	-5.385137e+001
652585500	-1.273260e-001	-5.917528e+001	-3.216141e+001	3.234370e+001	-3.219142e+001	3.240576e+001	-1.053572e-001	-5.575167e+001
675085000	-1.279863e-001	-6.122569e+001	-3.187457e+001	3.013075e+001	-3.187746e+001	3.025567e+001	-1.084344e-001	-5.760437e+001
697584500	-1.296912e-001	-6.325283e+001	-3.160445e+001	2.813208e+001	-3.158561e+001	2.807035e+001	-1.109775e-001	-5.951136e+001
720084000	-1.344038e-001	-6.527165e+001	-3.128393e+001	2.610385e+001	-3.130844e+001	2.611264e+001	-1.144918e-001	-6.140918e+001
742583500	-1.353938e-001	-6.736006e+001	-3.101380e+001	2.417340e+001	-3.104953e+001	2.412813e+001	-1.181532e-001	-6.329018e+001
765083000	-1.505312e-001	-6.937010e+001	-3.079572e+001	2.216482e+001	-3.077637e+001	2.212128e+001	-1.268612e-001	-6.518942e+001
787582500	-1.557922e-001	-7.152007e+001	-3.052946e+001	1.996262e+001	-3.054369e+001	1.988004e+001	-1.345375e-001	-6.706166e+001
810082000	-1.557242e-001	-7.357622e+001	-3.028376e+001	1.807787e+001	-3.026242e+001	1.794218e+001	-1.340545e-001	-6.898731e+001
832581500	-1.598465e-001	-7.562750e+001	-3.005783e+001	1.600433e+001	-3.005310e+001	1.612108e+001	-1.393033e-001	-7.089948e+001
855081000	-1.652333e-001	-7.773158e+001	-2.981632e+001	1.403268e+001	-2.981012e+001	1.403980e+001	-1.379454e-001	-7.279823e+001
877580500	-1.678111e-001	-7.978963e+001	-2.958616e+001	1.199847e+001	-2.959035e+001	1.184836e+001	-1.402954e-001	-7.465919e+001
900080000	-1.791224e-001	-8.185362e+001	-2.935171e+001	1.010401e+001	-2.937910e+001	9.953766e+000	-1.462830e-001	-7.654568e+001
922579500	-1.808991e-001	-8.393118e+001	-2.916802e+001	7.998161e+000	-2.915478e+001	7.966504e+000	-1.465842e-001	-7.841538e+001
945079000	-1.836990e-001	-8.603491e+001	-2.897994e+001	6.073958e+000	-2.896278e+001	5.906742e+000	-1.500203e-001	-8.031235e+001
967578500	-1.832424e-001	-8.810988e+001	-2.876151e+001	4.063782e+000	-2.876795e+001	4.245898e+000	-1.559264e-001	-8.211548e+001
990078000	-1.963658e-001	-9.018033e+001	-2.855069e+001	2.093690e+000	-2.856388e+001	2.085666e+000	-1.623393e-001	-8.401057e+001
1012577500	-1.993241e-001	-9.225848e+001	-2.834672e+001	1.891815e-001	-2.837571e+001	3.546676e-002	-1.694960e-001	-8.589719e+001
1035077000	-2.101736e-001	-9.434472e+001	-2.812043e+001	-1.700556e+000	-2.815151e+001	-2.014557e+000	-1.663217e-001	-8.780012e+001
1057576500	-2.090403e-001	-9.642169e+001	-2.794902e+001	-3.871447e+000	-2.794084e+001	-3.941025e+000	-1.722991e-001	-8.961173e+001
1080076000	-2.157212e-001	-9.860573e+001	-2.774954e+001	-5.889842e+000	-2.774912e+001	-5.922546e+000	-1.762038e-001	-9.150444e+001
1102575500	-2.191276e-001	-1.007378e+002	-2.756838e+001	-7.948075e+000	-2.757054e+001	-8.045715e+000	-1.763628e-001	-9.336128e+001
1125075000	-2.239788e-001	-1.028486e+002	-2.738053e+001	-1.001602e+001	-2.736381e+001	-1.018290e+001	-1.784002e-001	-9.521807e+001
1147574500	-2.335169e-001	-1.049831e+002	-2.720517e+001	-1.202715e+001	-2.720462e+001	-1.220308e+001	-1.867111e-001	-9.706107e+001
1170074000	-2.381175e-001	-1.071205e+002	-2.701362e+001	-1.418492e+001	-2.702359e+001	-1.422576e+001	-1.935683e-001	-9.891585e+001
1192573500	-2.458051e-001	-1.092212e+002	-2.685253e+001	-1.636511e+001	-2.686795e+001	-1.630328e+001	-1.955098e-001	-1.007873e+002
1215073000	-2.506898e-001	-1.113917e+002	-2.670284e+001	-1.839768e+001	-2.668649e+001	-1.828048e+001	-1.975319e-001	-1.026507e+002
1237572500	-2.552562e-001	-1.134308e+002	-2.650695e+001	-2.040539e+001	-2.651232e+001	-2.043415e+001	-2.027582e-001	-1.044885e+002
1260072000	-2.604405e-001	-1.156057e+002	-2.634326e+001	-2.256070e+001	-2.635478e+001	-2.257933e+001	-2.089086e-001	-1.063368e+002
1282571500	-2.714017e-001	-1.177469e+002	-2.618121e+001	-2.470338e+001	-2.618743e+001	-2.470408e+001	-2.140678e-001	-1.082157e+002
1305071000	-2.759961e-001	-1.198830e+002	-2.601721e+001	-2.684490e+001	-2.602925e+001	-2.692966e+001	-2.191870e-001	-1.100818e+002
1327570500	-2.856489e-001	-1.219834e+002	-2.586417e+001	-2.903669e+001	-2.586966e+001	-2.911022e+001	-2.174746e-001	-1.119681e+002
1350070000	-2.936368e-001	-1.241485e+002	-2.571919e+001	-3.128462e+001	-2.575708e+001	-3.131634e+001	-2.255345e-001	-1.137991e+002
1372569500	-3.058619e-001	-1.263004e+002	-2.562411e+001	-3.341282e+001	-2.563135e+001	-3.348368e+001	-2.292665e-001	-1.156351e+002
1395069000	-3.098021e-001	-1.284020e+002	-2.548710e+001	-3.550131e+001	-2.548459e+001	-3.571184e+001	-2.260559e-001	-1.175074e+002
1417568500	-3.182915e-001	-1.305436e+002	-2.537368e+001	-3.748749e+001	-2.537715e+001	-3.767606e+001	-2.321865e-001	-1.192570e+002
1440068000	-3.227552e-001	-1.327530e+002	-2.524841e+001	-3.970483e+001	-2.524087e+001	-3.975538e+001	-2.367115e-001	-1.211273e+002
1462567500	-3.247281e-001	-1.348674e+002	-2.510942e+001	-4.159864e+001	-2.510886e+001	-4.165441e+001	-2.366673e-001	-1.229728e+002
1485067000	-3.439195e-001	-1.370325e+002	-2.499908e+001	-4.345866e+001	-2.498670e+001	-4.372174e+001	-2.410603e-001	-1.248309e+002
1507566500	-3.530234e-001	-1.392382e+002	-2.484907e+001	-4.570390e+001	-2.485568e+001	-4.584026e+001	-2.482411e-001	-1.266963e+002
1530066000	-3.605727e-001	-1.414475e+002	-2.469962e+001	-4.787719e+001	-2.471872e+001	-4.786095e+001	-2.617862e-001	-1.285302e+002
1552565500	-3.741345e-001	-1.436762e+002	-2.458620e+001	-4.995913e+001	-2.458797e+001	-5.011013e+001	-2.719997e-001	-1.303756e+002
1575065000	-3.823718e-001	-1.458632e+002	-2.443642e+001	-5.228171e+001	-2.441954e+001	-5.229666e+001	-2.657631e-001	-1.322811e+002
1597564500	-3.968312e-001	-1.480655e+002	-2.427657e+001	-5.454668e+001	-2.428054e+001	-5.461081e+001	-2.625755e-001	-1.341221e+002
1620064000	-4.072040e-001	-1.502422e+002	-2.421851e+001	-5.682021e+001	-2.420834e+001	-5.700194e+001	-2.701449e-001	-1.359192e+002
1642563500	-4.144643e-001	-1.524028e+002	-2.412284e+001	-5.883142e+001	-2.412749e+001	-5.898142e+001	-2.723624e-001	-1.377388e+002
1665063000	-4.222950e-001	-1.546455e+002	-2.397834e+001	-6.089363e+001	-2.397039e+001	-6.111679e+001	-2.778840e-001	-1.395638e+002
1687562500	-4.374229e-001	-1.568983e+002	-2.386982e+001	-6.330577e+001	-2.387799e+001	-6.348625e+001	-2.821716e-001	-1.413942e+002
1710062000	-4.480811e-001	-1.590961e+002	-2.379712e+001	-6.543972e+001	-2.379068e+001	-6.541530e+001	-2.893305e-001	-1.431692e+002
1732561500	-4.566201e-001	-1.613418e+002	-2.367973e+001	-6.757919e+001	-2.369028e+001	-6.767828e+001	-3.000723e-001	-1.450246e+002
1755061000	-4.773880e-001	-1.635734e+002	-2.360608e+001	-6.981036e+001	-2.359788e+001	-6.991794e+001	-2.922974e-001	-1.467885e+002
1777560500	-4.825123e-001	-1.658901e+002	-2.351592e+001	-7.188886e+001	-2.354051e+001	-7.194207e+001	-3.079423e-001	-1.485931e+002
1800060000	-4.939478e-001	-1.681767e+002	-2.340980e+001	-7.389880e+001	-2.340989e+001	-7.394936e+001	-3.012802e-001	-1.504872e+002
1822559500	-5.027939e-001	-1.704355e+002	-2.328717e+001	-7.604043e+001	-2.327430e+001	-7.620105e+001	-3.024113e-001	-1.522913e+002
1845059000	-5.234287e-001	-1.726944e+002	-2.318067e+001	-7.834653e+001	-2.316809e+001	-7.854088e+001	-2.966906e-001	-1.540959e+002
1867558500	-5.303602e-001	-1.748900e+002	-2.310680e+001	-8.057838e+001	-2.310372e+001	-8.075691e+001	-3.110387e-001	-1.558678e+002
1890058000	-5.467214e-001	-1.772025e+002	-2.303750e+001	-8.266111e+001	-2.302796e+001	-8.278203e+001	-3.175655e-001	-1.577289e+002
1912557500	-5.533277e-001	-1.794345e+002	-2.291535e+001	-8.475598e+001	-2.291158e+001	-8.465651e+001	-3.166333e-001	-1.595127e+002
1935057000	-5.652505e-001	1.783091e+002	-2.279676e+001	-8.691136e+001	-2.279497e+001	-8.701374e+001	-3.136597e-001	-1.613633e+002
1957556500	-5.921785e-001	1.759919e+002	-2.270987e+001	-8.938242e+001	-2.268707e+001	-8.940225e+001	-3.232871e-001	-1.631783e+002
1980056000	-6.144539e-001	1.736683e+002	-2.257965e+001	-9.156725e+001	-2.257491e+001	-9.176164e+001	-3.278177e-001	-1.649707e+002
2002555500	-6.341273e-001	1.713704e+002	-2.252439e+001	-9.409697e+001	-2.251836e+001	-9.416279e+001	-3.383899e-001	-1.668147e+002
2025055000	-6.557354e-001	1.691620e+002	-2.246971e+001	-9.632325e+001	-2.248379e+001	-9.654087e+001	-3.473788e-001	-1.686669e+002
2047554500	-6.724345e-001	1.668089e+002	-2.245215e+001	-9.850763e+001	-2.244362e+001	-9.867404e+001	-3.498140e-001	-1.704700e+002
2070054000	-6.879944e-001	1.644346e+002	-2.237078e+001	-1.005124e+002	-2.237096e+001	-1.005831e+002	-3.434974e-001	-1.722357e+002
2092553500	-7.061074e-001	1.620700e+002	-2.229755e+001	-1.025770e+002	-2.230115e+001	-1.027096e+002	-3.458526e-001	-1.741019e+002
2115053000	-7.235885e-001	1.596857e+002	-2.219931e+001	-1.045269e+002	-2.219422e+001	-1.045228e+002	-3.396150e-001	-1.758917e+002
2137552500	-7.463647e-001	1.572845e+002	-2.209725e+001	-1.065575e+002	-2.206971e+001	-1.065979e+002	-3.432543e-001	-1.776901e+002
2160052000	-7.671531e-001	1.549417e+002	-2.197111e+001	-1.086320e+002	-2.195125e+001	-1.088218e+002	-3.469920e-001	-1.795252e+002
2182551500	-7.911120e-001	1.525292e+002	-2.185337e+001	-1.109407e+002	-2.185832e+001	-1.110879e+002	-3.623674e-001	1.786404e+002
2205051000	-8.198089e-001	1.500803e+002	-2.172109e+001	-1.133700e+002	-2.170969e+001	-1.133522e+002	-3.582396e-001	1.768392e+002
2227550500	-8.577235e-001	1.477344e+002	-2.161064e+001	-1.157611e+002	-2.160588e+001	-1.158491e+002	-3.706558e-001	1.750560e+002
2250050000	-8.987550e-001	1.452821e+002	-2.150067e+001	-1.183092e+002	-2.149639e+001	-1.181708e+002	-3.794107e-001	1.732141e+002
2272549500	-9.296033e-001	1.428520e+002	-2.138627e+001	-1.207052e+002	-2.136436e+001	-1.207223e+002	-3.806182e-001	1.713087e+002
2295049000	-9.579615e-001	1.403792e+002	-2.127374e+001	-1.232423e+002	-2.126203e+001	-1.231902e+002	-3.863382e-001	1.695162e+002
2317548500	-1.013107e+000	1.378699e+002	-2.117074e+001	-1.257452e+002	-2.114757e+001	-1.257963e+002	-3.897399e-001	1.676406e+002
2340048000	-1.059206e+000	1.353600e+002	-2.103242e+001	-1.287358e+002	-2.102894e+001	-1.288308e+002	-3.970836e-001	1.657997e+002
2362547500	-1.118950e+000	1.327917e+002	-2.088742e+001	-1.319061e+002	-2.088695e+001	-1.318918e+002	-4.067304e-001	1.640127e+002
2385047000	-1.198184e+000	1.302984e+002	-2.080900e+001	-1.351644e+002	-2.078783e+001	-1.352849e+002	-4.232615e-001	1.621338e+002
2407546500	-1.260148e+000	1.279099e+002	-2.077023e+001	-1.387793e+002	-2.075118e+001	-1.387567e+002	-4.351222e-001	1.604137e+002
2430046000	-1.340588e+000	1.255444e+002	-2.081959e+001	-1.422633e+002	-2.081696e+001	-1.424521e+002	-4.574448e-001	1.585725e+002
2452545500	-1.414298e+000	1.232622e+002	-2.085403e+001	-1.454978e+002	-2.083928e+001	-1.455223e+002	-4.537234e-001	1.569162e+002
2475045000	-1.480934e+000	1.209881e+002	-2.094028e+001	-1.486965e+002	-2.092462e+001	-1.486815e+002	-4.653909e-001	1.551390e+002
2497544500	-1.540413e+000	1.186884e+002	-2.107025e+001	-1.511629e+002	-2.103214e+001	-1.511803e+002	-4.602738e-001	1.533324e+002
2520044000	-1.593142e+000	1.165138e+002	-2.118480e+001	-1.536987e+002	-2.118770e+001	-1.537879e+002	-4.794135e-001	1.515735e+002
2542543500	-1.624927e+000	1.142079e+002	-2.128262e+001	-1.558661e+002	-2.126952e+001	-1.560439e+002	-4.629099e-001	1.497418e+002
2565043000	-1.685380e+000	1.117972e+002	-2.134329e+001	-1.582148e+002	-2.132205e+001	-1.582929e+002	-4.790763e-001	1.479809e+002
2587542500	-1.731421e+000	1.094455e+002	-2.140014e+001	-1.602980e+002	-2.139752e+001	-1.603422e+002	-4.662424e-001	1.461622e+002
2610042000	-1.790125e+000	1.069861e+002	-2.142188e+001	-1.624497e+002	-2.141053e+001	-1.624940e+002	-4.840405e-001	1.444363e+002
2632541500	-1.853046e+000	1.044778e+002	-2.138973e+001	-1.645204e+002	-2.138436e+001	-1.646011e+002	-4.786799e-001	1.425513e+002
2655041000	-1.909169e+000	1.018529e+002	-2.133412e+001	-1.667021e+002	-2.131070e+001	-1.667058e+002	-4.832687e-001	1.407844e+002
2677540500	-2.008978e+000	9.928844e+001	-2.127847e+001	-1.695713e+002	-2.125518e+001	-1.695843e+002	-4.899010e-001	1.389719e+002
2700040000	-2.088243e+000	9.678901e+001	-2.129172e+001	-1.723483e+002	-2.127885e+001	-1.724158e+002	-5.057562e-001	1.371356e+002
2722539500	-2.190056e+000	9.416245e+001	-2.123651e+001	-1.752711e+002	-2.120006e+001	-1.752280e+002	-5.086396e-001	1.353537e+002
2745039000	-2.302626e+000	9.155671e+001	-2.120200e+001	-1.787893e+002	-2.117002e+001	-1.787718e+002	-5.338263e-001	1.335351e+002
2767538500	-2.447653e+000	8.913997e+001	-2.127244e+001	1.770097e+002	-2.125327e+001	1.770152e+002	-5.546696e-001	1.317904e+002
2790038000	-2.558810e+000	8.667696e+001	-2.137996e+001	1.735231e+002	-2.137671e+001	1.735499e+002	-5.720926e-001	1.300502e+002
2812537500	-2.688349e+000	8.439084e+001	-2.150520e+001	1.699568e+002	-2.150091e+001	1.699620e+002	-5.761861e-001	1.282659e+002
2835037000	-2.825567e+000	8.225011e+001	-2.179388e+001	1.654199e+002	-2.180033e+001	1.654358e+002	-6.023433e-001	1.265664e+002
2857536500	-2.951202e+000	8.023054e+001	-2.221574e+001	1.613476e+002	-2.217960e+001	1.613954e+002	-5.991689e-001	1.248644e+002
2880036000	-3.038682e+000	7.822360e+001	-2.268922e+001	1.585020e+002	-2.266344e+001	1.583834e+002	-6.029808e-001	1.231546e+002
2902535500	-3.110255e+000	7.597611e+001	-2.315910e+001	1.566519e+002	-2.316548e+001	1.564887e+002	-5.968261e-001	1.214518e+002
2925035000	-3.188890e+000	7.358006e+001	-2.363582e+001	1.560122e+002	-2.362347e+001	1.559130e+002	-5.928866e-001	1.197241e+002
2947534500	-3.292527e+000	7.115009e+001	-2.400106e+001	1.548304e+002	-2.398694e+001	1.547545e+002	-5.872293e-001	1.179098e+002
2970034000	-3.412438e+000	6.861751e+001	-2.435172e+001	1.548668e+002	-2.435038e+001	1.549618e+002	-5.775256e-001	1.161286e+002
2992533500	-3.521943e+000	6.594992e+001	-2.451302e+001	1.548414e+002	-2.450362e+001	1.548020e+002	-5.770041e-001	1.141522e+002
3015033000	-3.681672e+000	6.336158e+001	-2.463853e+001	1.537884e+002	-2.460697e+001	1.537871e+002	-5.704705e-001	1.122916e+002
3037532500	-3.878944e+000	6.075453e+001	-2.478420e+001	1.525692e+002	-2.477570e+001	1.526049e+002	-5.891516e-001	1.103766e+002
3060032000	-4.055742e+000	5.824743e+001	-2.492794e+001	1.519944e+002	-2.493789e+001	1.519131e+002	-5.881363e-001	1.085328e+002
3082531500	-4.269977e+000	5.562523e+001	-2.500398e+001	1.513904e+002	-2.499689e+001	1.515045e+002	-5.836077e-001	1.066665e+002
3105031000	-4.490078e+000	5.319551e+001	-2.509977e+001	1.509016e+002	-2.506982e+001	1.509791e+002	-5.894630e-001	1.047589e+002
3127530500	-4.739567e+000	5.093684e+001	-2.511959e+001	1.496645e+002	-2.511067e+001	1.497146e+002	-6.071373e-001	1.029443e+002
3150030000	-5.006802e+000	4.873846e+001	-2.508725e+001	1.479256e+002	-2.506216e+001	1.477572e+002	-6.283545e-001	1.010474e+002
3172529500	-5.293187e+000	4.673129e+001	-2.519125e+001	1.457634e+002	-2.517591e+001	1.458086e+002	-6.410789e-001	9.923750e+001
3195029000	-5.598848e+000	4.508212e+001	-2.540126e+001	1.429181e+002	-2.540476e+001	1.430601e+002	-6.612508e-001	9.744702e+001
3217528500	-5.899070e+000	4.364655e+001	-2.570418e+001	1.407259e+002	-2.572343e+001	1.409634e+002	-6.756924e-001	9.567753e+001
3240028000	-6.157652e+000	4.222526e+001	-2.610865e+001	1.396885e+002	-2.607746e+001	1.398200e+002	-6.818769e-001	9.385252e+001
3262527500	-6.441460e+000	4.092294e+001	-2.648685e+001	1.384718e+002	-2.647245e+001	1.384664e+002	-6.964521e-001	9.212726e+001
3285027000	-6.733102e+000	3.981313e+001	-2.700510e+001	1.376372e+002	-2.696128e+001	1.378336e+002	-6.888396e-001	9.028478e+001
3307526500	-6.990445e+000	3.883137e+001	-2.751384e+001	1.392605e+002	-2.749062e+001	1.394053e+002	-6.840372e-001	8.853402e+001
3330026000	-7.276797e+000	3.803602e+001	-2.790171e+001	1.412471e+002	-2.787889e+001	1.412024e+002	-6.788411e-001	8.667246e+001
3352525500	-7.533349e+000	3.740181e+001	-2.816953e+001	1.438059e+002	-2.814569e+001	1.437370e+002	-6.735102e-001	8.483746e+001
3375025000	-7.803809e+000	3.690292e+001	-2.814924e+001	1.462785e+002	-2.815428e+001	1.462270e+002	-6.762081e-001	8.292320e+001
3397524500	-8.032772e+000	3.656655e+001	-2.805947e+001	1.492644e+002	-2.802234e+001	1.491368e+002	-6.780117e-001	8.105944e+001
