!Agilent Technologies,E5071C,MY46101151,A.11.34
!Date: Mon Sep 17 23:09:52 2018
!Data & Calibration Information:
!Freq	S11:SOLT2(ON)	S21:SOLT2(ON)	S12:SOLT2(ON)	S22:SOLT2(ON)
!PortZ  Port1:50+j0    Port2:50+j0
!Above PortZ is port z conversion or system Z0 setting when saving the data.
!When reading, reference impedance value at option line is always used.
# Hz S dB R 50
100000	-3.342689e+001	-1.087221e+002	-4.564772e-003	2.439783e+001	6.375022e-002	2.449043e+001	-3.683434e+001	-1.093812e+002
22599500	-5.914107e+001	8.825088e+001	6.882242e-003	-2.029021e+000	5.139048e-003	-2.043873e+000	-5.039730e+001	1.038495e+002
45099000	-4.981535e+001	-1.278342e+002	3.628362e-003	-3.808224e+000	1.448079e-003	-3.850330e+000	-5.290955e+001	-1.201146e+002
67598500	-5.025281e+001	-1.112700e+002	-8.617259e-004	-5.729365e+000	-1.546966e-003	-5.682899e+000	-4.664366e+001	-1.100853e+002
90098000	-4.412202e+001	-1.053202e+002	-3.548373e-003	-7.525811e+000	-1.403902e-003	-7.530835e+000	-4.351560e+001	-1.207047e+002
112597500	-4.329152e+001	-1.086250e+002	-1.289348e-002	-9.396723e+000	-8.545436e-003	-9.397233e+000	-4.288333e+001	-1.182942e+002
135097000	-4.296292e+001	-1.074456e+002	-1.504273e-002	-1.126700e+001	-1.136644e-002	-1.121864e+001	-4.116057e+001	-1.114498e+002
157596500	-4.113581e+001	-1.057373e+002	-1.560747e-002	-1.307336e+001	-1.296430e-002	-1.306829e+001	-4.041156e+001	-1.106127e+002
180096000	-3.975319e+001	-1.146190e+002	-1.323507e-002	-1.492274e+001	-1.581425e-002	-1.493547e+001	-3.929532e+001	-1.107114e+002
202595500	-3.836119e+001	-1.115881e+002	-1.806448e-002	-1.676019e+001	-1.298938e-002	-1.679207e+001	-3.759509e+001	-1.192023e+002
225095000	-3.771927e+001	-1.151344e+002	-2.231169e-002	-1.862031e+001	-1.816304e-002	-1.860567e+001	-3.693692e+001	-1.182506e+002
247594500	-3.630916e+001	-1.181231e+002	-2.373281e-002	-2.045579e+001	-2.035287e-002	-2.039881e+001	-3.602472e+001	-1.204778e+002
270094000	-3.557166e+001	-1.154001e+002	-2.315347e-002	-2.228776e+001	-2.283029e-002	-2.226445e+001	-3.565360e+001	-1.226701e+002
292593500	-3.478589e+001	-1.156068e+002	-2.995621e-002	-2.410951e+001	-2.645521e-002	-2.412013e+001	-3.503341e+001	-1.249531e+002
315093000	-3.419304e+001	-1.177248e+002	-2.986357e-002	-2.595456e+001	-3.025696e-002	-2.595780e+001	-3.422535e+001	-1.256071e+002
337592500	-3.423518e+001	-1.197108e+002	-3.551037e-002	-2.780211e+001	-3.143113e-002	-2.781500e+001	-3.393039e+001	-1.289875e+002
360092000	-3.359938e+001	-1.190092e+002	-3.897716e-002	-2.964488e+001	-3.746524e-002	-2.962698e+001	-3.310918e+001	-1.296537e+002
382591500	-3.313457e+001	-1.210065e+002	-4.197925e-002	-3.151571e+001	-3.496787e-002	-3.153185e+001	-3.241435e+001	-1.330902e+002
405091000	-3.290493e+001	-1.218190e+002	-4.747728e-002	-3.339068e+001	-4.589378e-002	-3.342396e+001	-3.239174e+001	-1.343570e+002
427590500	-3.259197e+001	-1.185246e+002	-6.197633e-002	-3.520872e+001	-6.117122e-002	-3.521678e+001	-3.204300e+001	-1.334223e+002
450090000	-3.110701e+001	-1.214565e+002	-6.658564e-002	-3.691026e+001	-6.588384e-002	-3.689321e+001	-3.086826e+001	-1.339027e+002
472589500	-3.105181e+001	-1.254380e+002	-5.717795e-002	-3.877422e+001	-5.800518e-002	-3.875059e+001	-3.052342e+001	-1.399873e+002
495089000	-3.037026e+001	-1.268897e+002	-5.880620e-002	-4.060599e+001	-5.900041e-002	-4.058242e+001	-2.995473e+001	-1.415718e+002
517588500	-3.043446e+001	-1.303134e+002	-5.707629e-002	-4.246380e+001	-6.053951e-002	-4.246560e+001	-2.975977e+001	-1.452793e+002
540088000	-3.015782e+001	-1.315148e+002	-6.377559e-002	-4.430611e+001	-6.254683e-002	-4.430881e+001	-2.939035e+001	-1.466405e+002
562587500	-2.972156e+001	-1.334743e+002	-6.397539e-002	-4.614704e+001	-6.399579e-002	-4.613501e+001	-2.916128e+001	-1.493647e+002
585087000	-2.941546e+001	-1.345910e+002	-6.813396e-002	-4.796343e+001	-6.980537e-002	-4.801451e+001	-2.893737e+001	-1.500506e+002
607586500	-2.947472e+001	-1.347070e+002	-7.340520e-002	-4.981328e+001	-7.022947e-002	-4.981482e+001	-2.862391e+001	-1.523902e+002
630086000	-2.924100e+001	-1.364289e+002	-7.522140e-002	-5.163675e+001	-7.303599e-002	-5.166260e+001	-2.874151e+001	-1.563263e+002
652585500	-2.904357e+001	-1.380556e+002	-7.941481e-002	-5.348740e+001	-7.646089e-002	-5.346443e+001	-2.870675e+001	-1.589270e+002
675085000	-2.883354e+001	-1.407056e+002	-7.967466e-002	-5.532912e+001	-7.378750e-002	-5.533312e+001	-2.833526e+001	-1.606646e+002
697584500	-2.862335e+001	-1.409229e+002	-8.493674e-002	-5.714075e+001	-8.018472e-002	-5.718902e+001	-2.809386e+001	-1.620417e+002
720084000	-2.851924e+001	-1.422404e+002	-8.970975e-002	-5.898216e+001	-8.231844e-002	-5.900124e+001	-2.781269e+001	-1.645834e+002
742583500	-2.836372e+001	-1.429773e+002	-9.295435e-002	-6.081395e+001	-8.984649e-002	-6.084468e+001	-2.790727e+001	-1.666652e+002
765083000	-2.818340e+001	-1.449575e+002	-9.742699e-002	-6.268807e+001	-9.218940e-002	-6.267223e+001	-2.747540e+001	-1.688728e+002
787582500	-2.768843e+001	-1.439905e+002	-1.075182e-001	-6.450171e+001	-1.015081e-001	-6.452304e+001	-2.744157e+001	-1.707488e+002
810082000	-2.736147e+001	-1.468096e+002	-1.075965e-001	-6.630823e+001	-1.081242e-001	-6.631347e+001	-2.710224e+001	-1.713651e+002
832581500	-2.729241e+001	-1.479041e+002	-1.138347e-001	-6.816055e+001	-1.102954e-001	-6.815182e+001	-2.693224e+001	-1.734636e+002
855081000	-2.729360e+001	-1.488031e+002	-1.225968e-001	-7.003070e+001	-1.158949e-001	-6.998415e+001	-2.682840e+001	-1.744543e+002
877580500	-2.679983e+001	-1.497507e+002	-1.237941e-001	-7.179813e+001	-1.224926e-001	-7.179398e+001	-2.655456e+001	-1.763834e+002
900080000	-2.668305e+001	-1.512608e+002	-1.289339e-001	-7.358482e+001	-1.283886e-001	-7.356585e+001	-2.632871e+001	-1.779619e+002
922579500	-2.651693e+001	-1.530688e+002	-1.318992e-001	-7.539102e+001	-1.243936e-001	-7.534083e+001	-2.606170e+001	1.795817e+002
945079000	-2.638144e+001	-1.579002e+002	-1.266925e-001	-7.722190e+001	-1.237235e-001	-7.716121e+001	-2.601344e+001	1.764252e+002
967578500	-2.647138e+001	-1.587271e+002	-1.262405e-001	-7.907332e+001	-1.195649e-001	-7.903265e+001	-2.588600e+001	1.715682e+002
990078000	-2.630622e+001	-1.606789e+002	-1.289728e-001	-8.093066e+001	-1.215571e-001	-8.086986e+001	-2.572204e+001	1.704983e+002
1012577500	-2.636725e+001	-1.607440e+002	-1.300072e-001	-8.278140e+001	-1.200564e-001	-8.273608e+001	-2.555415e+001	1.677939e+002
1035077000	-2.632327e+001	-1.617586e+002	-1.379647e-001	-8.462527e+001	-1.295353e-001	-8.455548e+001	-2.554095e+001	1.660270e+002
1057576500	-2.614920e+001	-1.635347e+002	-1.355570e-001	-8.647533e+001	-1.321346e-001	-8.640889e+001	-2.559539e+001	1.640152e+002
1080076000	-2.604119e+001	-1.649042e+002	-1.388919e-001	-8.830353e+001	-1.328563e-001	-8.829482e+001	-2.555779e+001	1.608837e+002
1102575500	-2.600331e+001	-1.667148e+002	-1.435271e-001	-9.014952e+001	-1.388133e-001	-9.014736e+001	-2.543323e+001	1.590976e+002
1125075000	-2.586161e+001	-1.679228e+002	-1.434479e-001	-9.199390e+001	-1.408734e-001	-9.196468e+001	-2.537796e+001	1.571927e+002
1147574500	-2.589393e+001	-1.698704e+002	-1.522277e-001	-9.382170e+001	-1.473421e-001	-9.379920e+001	-2.518556e+001	1.543006e+002
1170074000	-2.569286e+001	-1.703391e+002	-1.559309e-001	-9.564550e+001	-1.530855e-001	-9.563396e+001	-2.519411e+001	1.516311e+002
1192573500	-2.570845e+001	-1.718391e+002	-1.590207e-001	-9.750586e+001	-1.585888e-001	-9.745201e+001	-2.516807e+001	1.490510e+002
1215073000	-2.554514e+001	-1.720784e+002	-1.663176e-001	-9.934093e+001	-1.644171e-001	-9.928016e+001	-2.517447e+001	1.474444e+002
1237572500	-2.548597e+001	-1.719754e+002	-1.777922e-001	-1.011749e+002	-1.720347e-001	-1.011288e+002	-2.514799e+001	1.460892e+002
1260072000	-2.540495e+001	-1.734518e+002	-1.826776e-001	-1.030023e+002	-1.771039e-001	-1.029470e+002	-2.506037e+001	1.439010e+002
1282571500	-2.546138e+001	-1.746126e+002	-1.869809e-001	-1.048309e+002	-1.860444e-001	-1.047979e+002	-2.535061e+001	1.422163e+002
1305071000	-2.530405e+001	-1.754177e+002	-1.902895e-001	-1.066556e+002	-1.896720e-001	-1.066143e+002	-2.515664e+001	1.401800e+002
1327570500	-2.531930e+001	-1.756348e+002	-2.014335e-001	-1.084716e+002	-1.953621e-001	-1.084745e+002	-2.529061e+001	1.377403e+002
1350070000	-2.522575e+001	-1.767864e+002	-2.075835e-001	-1.102416e+002	-2.012011e-001	-1.102686e+002	-2.511744e+001	1.366515e+002
1372569500	-2.502608e+001	-1.781957e+002	-2.118622e-001	-1.120142e+002	-2.087512e-001	-1.120412e+002	-2.497497e+001	1.345964e+002
1395069000	-2.525378e+001	1.798780e+002	-2.150863e-001	-1.138528e+002	-2.092960e-001	-1.138242e+002	-2.490681e+001	1.329932e+002
1417568500	-2.518089e+001	1.777877e+002	-2.114634e-001	-1.156557e+002	-2.088119e-001	-1.156465e+002	-2.488897e+001	1.298229e+002
1440068000	-2.491410e+001	1.755546e+002	-2.104552e-001	-1.174902e+002	-2.044149e-001	-1.174886e+002	-2.476813e+001	1.272785e+002
1462567500	-2.501836e+001	1.749562e+002	-2.145802e-001	-1.193203e+002	-2.098390e-001	-1.193523e+002	-2.485128e+001	1.242227e+002
1485067000	-2.533668e+001	1.740705e+002	-2.140841e-001	-1.211875e+002	-2.093656e-001	-1.212040e+002	-2.465691e+001	1.224057e+002
1507566500	-2.507683e+001	1.723793e+002	-2.149954e-001	-1.230118e+002	-2.098198e-001	-1.230635e+002	-2.464526e+001	1.187951e+002
1530066000	-2.520143e+001	1.717296e+002	-2.226700e-001	-1.249025e+002	-2.173867e-001	-1.249452e+002	-2.487771e+001	1.153391e+002
1552565500	-2.518409e+001	1.702901e+002	-2.280752e-001	-1.268015e+002	-2.248227e-001	-1.267793e+002	-2.506289e+001	1.137447e+002
1575065000	-2.526371e+001	1.697765e+002	-2.353592e-001	-1.286431e+002	-2.384464e-001	-1.286408e+002	-2.529753e+001	1.122455e+002
1597564500	-2.507966e+001	1.700014e+002	-2.474022e-001	-1.304802e+002	-2.473876e-001	-1.304678e+002	-2.532318e+001	1.126652e+002
1620064000	-2.513031e+001	1.677507e+002	-2.561915e-001	-1.322443e+002	-2.526316e-001	-1.322450e+002	-2.522040e+001	1.103156e+002
1642563500	-2.496423e+001	1.663421e+002	-2.547933e-001	-1.339989e+002	-2.554853e-001	-1.340248e+002	-2.511762e+001	1.074888e+002
1665063000	-2.512736e+001	1.653425e+002	-2.619491e-001	-1.358510e+002	-2.543141e-001	-1.358807e+002	-2.520501e+001	1.046399e+002
1687562500	-2.504039e+001	1.634669e+002	-2.614813e-001	-1.376579e+002	-2.601403e-001	-1.376830e+002	-2.530134e+001	1.032071e+002
1710062000	-2.498702e+001	1.618386e+002	-2.632387e-001	-1.395107e+002	-2.625278e-001	-1.395170e+002	-2.535417e+001	9.956551e+001
1732561500	-2.535668e+001	1.617251e+002	-2.695257e-001	-1.413849e+002	-2.702625e-001	-1.413997e+002	-2.558019e+001	9.722313e+001
1755061000	-2.521878e+001	1.610631e+002	-2.721140e-001	-1.431867e+002	-2.735357e-001	-1.431844e+002	-2.559976e+001	9.640533e+001
1777560500	-2.503585e+001	1.607884e+002	-2.752604e-001	-1.449966e+002	-2.761085e-001	-1.450306e+002	-2.548951e+001	9.223607e+001
1800060000	-2.540158e+001	1.584522e+002	-2.779295e-001	-1.468730e+002	-2.762594e-001	-1.468931e+002	-2.557361e+001	9.063604e+001
1822559500	-2.540398e+001	1.590475e+002	-2.906158e-001	-1.487123e+002	-2.851506e-001	-1.487316e+002	-2.590923e+001	8.902123e+001
1845059000	-2.537103e+001	1.582911e+002	-2.893854e-001	-1.505656e+002	-2.901840e-001	-1.505554e+002	-2.598730e+001	8.763941e+001
1867558500	-2.536039e+001	1.571301e+002	-3.011395e-001	-1.524057e+002	-2.924315e-001	-1.524159e+002	-2.613360e+001	8.487024e+001
1890058000	-2.534259e+001	1.558684e+002	-3.064716e-001	-1.542858e+002	-3.039444e-001	-1.542674e+002	-2.635317e+001	8.281879e+001
1912557500	-2.523175e+001	1.567846e+002	-3.158006e-001	-1.560888e+002	-3.140034e-001	-1.561131e+002	-2.670414e+001	7.952480e+001
1935057000	-2.528142e+001	1.563238e+002	-3.262227e-001	-1.579149e+002	-3.249380e-001	-1.579162e+002	-2.679199e+001	7.940691e+001
1957556500	-2.523830e+001	1.539972e+002	-3.357558e-001	-1.597051e+002	-3.355606e-001	-1.597087e+002	-2.682565e+001	7.802329e+001
1980056000	-2.503517e+001	1.542723e+002	-3.423888e-001	-1.614852e+002	-3.381333e-001	-1.615045e+002	-2.698039e+001	7.789289e+001
2002555500	-2.507916e+001	1.522963e+002	-3.422738e-001	-1.632878e+002	-3.433129e-001	-1.633391e+002	-2.705940e+001	7.448647e+001
2025055000	-2.531044e+001	1.527712e+002	-3.509999e-001	-1.651015e+002	-3.460191e-001	-1.651289e+002	-2.680468e+001	7.291612e+001
2047554500	-2.526581e+001	1.491449e+002	-3.535281e-001	-1.669804e+002	-3.472954e-001	-1.669480e+002	-2.706701e+001	7.083171e+001
2070054000	-2.527466e+001	1.488312e+002	-3.584564e-001	-1.687714e+002	-3.555062e-001	-1.687726e+002	-2.732320e+001	6.891554e+001
2092553500	-2.514824e+001	1.478621e+002	-3.614515e-001	-1.705444e+002	-3.569744e-001	-1.705736e+002	-2.700575e+001	6.712215e+001
2115053000	-2.523874e+001	1.449838e+002	-3.571176e-001	-1.723620e+002	-3.544334e-001	-1.723661e+002	-2.725940e+001	6.542539e+001
2137552500	-2.551581e+001	1.430740e+002	-3.575659e-001	-1.741762e+002	-3.531059e-001	-1.741754e+002	-2.756774e+001	6.220076e+001
2160052000	-2.573182e+001	1.442192e+002	-3.561508e-001	-1.760594e+002	-3.448212e-001	-1.760310e+002	-2.750133e+001	5.977179e+001
2182551500	-2.600019e+001	1.426057e+002	-3.522176e-001	-1.779479e+002	-3.483562e-001	-1.779624e+002	-2.767782e+001	5.380387e+001
2205051000	-2.607031e+001	1.426733e+002	-3.544398e-001	-1.798680e+002	-3.536171e-001	-1.798422e+002	-2.847532e+001	5.114732e+001
2227550500	-2.623061e+001	1.431593e+002	-3.678186e-001	1.782639e+002	-3.649431e-001	1.782674e+002	-2.897682e+001	4.857531e+001
2250050000	-2.635371e+001	1.430470e+002	-3.751284e-001	1.763668e+002	-3.766293e-001	1.763737e+002	-2.994632e+001	4.456114e+001
2272549500	-2.619674e+001	1.448002e+002	-3.905023e-001	1.745368e+002	-3.907182e-001	1.745170e+002	-3.046695e+001	4.513042e+001
2295049000	-2.620949e+001	1.446360e+002	-4.058832e-001	1.726964e+002	-4.001060e-001	1.726947e+002	-3.122978e+001	4.508794e+001
2317548500	-2.647747e+001	1.427181e+002	-4.177831e-001	1.708463e+002	-4.140330e-001	1.708570e+002	-3.158064e+001	4.218952e+001
2340048000	-2.616814e+001	1.434358e+002	-4.324236e-001	1.690697e+002	-4.286599e-001	1.690583e+002	-3.165587e+001	4.237986e+001
2362547500	-2.587177e+001	1.426507e+002	-4.457429e-001	1.672978e+002	-4.442036e-001	1.672999e+002	-3.261982e+001	4.349288e+001
2385047000	-2.592797e+001	1.403975e+002	-4.594318e-001	1.654559e+002	-4.572503e-001	1.654720e+002	-3.240821e+001	4.721175e+001
2407546500	-2.565308e+001	1.393889e+002	-4.671387e-001	1.637402e+002	-4.642189e-001	1.637408e+002	-3.289021e+001	4.856093e+001
2430046000	-2.559255e+001	1.368085e+002	-4.713253e-001	1.619846e+002	-4.654964e-001	1.619615e+002	-3.243724e+001	4.743298e+001
2452545500	-2.574374e+001	1.353385e+002	-4.738824e-001	1.602009e+002	-4.664126e-001	1.602101e+002	-3.285723e+001	4.653982e+001
2475045000	-2.562319e+001	1.335288e+002	-4.741197e-001	1.584135e+002	-4.681376e-001	1.584395e+002	-3.306828e+001	4.795117e+001
2497544500	-2.592198e+001	1.303188e+002	-4.664490e-001	1.566018e+002	-4.669635e-001	1.566317e+002	-3.297057e+001	4.432479e+001
2520044000	-2.619886e+001	1.300865e+002	-4.647552e-001	1.548386e+002	-4.610054e-001	1.548302e+002	-3.272287e+001	3.896839e+001
2542543500	-2.643036e+001	1.291724e+002	-4.551209e-001	1.529867e+002	-4.521428e-001	1.529828e+002	-3.332242e+001	3.822261e+001
2565043000	-2.695866e+001	1.280615e+002	-4.579083e-001	1.511101e+002	-4.532668e-001	1.511017e+002	-3.385989e+001	3.154185e+001
2587542500	-2.695376e+001	1.286640e+002	-4.583104e-001	1.492651e+002	-4.528296e-001	1.492935e+002	-3.485345e+001	3.192524e+001
2610042000	-2.733335e+001	1.281563e+002	-4.626061e-001	1.474258e+002	-4.569228e-001	1.474363e+002	-3.555211e+001	2.898297e+001
2632541500	-2.751638e+001	1.276961e+002	-4.604699e-001	1.455722e+002	-4.566098e-001	1.455752e+002	-3.658417e+001	2.335963e+001
2655041000	-2.754882e+001	1.293617e+002	-4.666271e-001	1.437417e+002	-4.604883e-001	1.437220e+002	-3.883976e+001	1.778464e+001
2677540500	-2.764027e+001	1.289550e+002	-4.684387e-001	1.418428e+002	-4.643867e-001	1.418483e+002	-4.064842e+001	1.836352e+001
2700040000	-2.793291e+001	1.291217e+002	-4.800652e-001	1.399716e+002	-4.707634e-001	1.399707e+002	-4.164835e+001	1.470350e+001
2722539500	-2.794025e+001	1.299281e+002	-4.887240e-001	1.381369e+002	-4.812327e-001	1.381646e+002	-4.615723e+001	2.669178e+001
2745039000	-2.798157e+001	1.287244e+002	-4.935778e-001	1.362876e+002	-4.892442e-001	1.362940e+002	-4.767040e+001	3.478997e+001
2767538500	-2.780988e+001	1.283946e+002	-5.060315e-001	1.345012e+002	-5.002797e-001	1.345140e+002	-5.104099e+001	6.609783e+001
2790038000	-2.781865e+001	1.251692e+002	-5.066847e-001	1.326748e+002	-5.072189e-001	1.326891e+002	-4.888540e+001	6.631301e+001
2812537500	-2.780817e+001	1.250982e+002	-5.090144e-001	1.308939e+002	-5.087080e-001	1.309074e+002	-4.831164e+001	8.210050e+001
2835037000	-2.796882e+001	1.238004e+002	-5.118889e-001	1.290969e+002	-5.140016e-001	1.290940e+002	-4.814540e+001	8.096223e+001
2857536500	-2.840305e+001	1.212633e+002	-5.136584e-001	1.272494e+002	-5.094279e-001	1.272660e+002	-4.497420e+001	8.693728e+001
2880036000	-2.850029e+001	1.233444e+002	-5.192492e-001	1.254676e+002	-5.074413e-001	1.254423e+002	-4.613589e+001	9.703340e+001
2902535500	-2.858643e+001	1.210498e+002	-5.119995e-001	1.236521e+002	-5.050615e-001	1.236115e+002	-4.674822e+001	1.077596e+002
2925035000	-2.905740e+001	1.227172e+002	-5.161197e-001	1.218039e+002	-5.088491e-001	1.217661e+002	-4.656979e+001	1.261882e+002
2947534500	-2.930544e+001	1.221735e+002	-5.166727e-001	1.199504e+002	-5.093975e-001	1.199328e+002	-4.602802e+001	1.301256e+002
2970034000	-2.972941e+001	1.212192e+002	-5.129157e-001	1.180749e+002	-5.122034e-001	1.180903e+002	-4.319700e+001	1.418583e+002
2992533500	-2.986744e+001	1.223979e+002	-5.056630e-001	1.162330e+002	-5.041613e-001	1.162419e+002	-4.170943e+001	1.487680e+002
3015033000	-3.033729e+001	1.250985e+002	-5.086560e-001	1.143571e+002	-4.993414e-001	1.143682e+002	-4.003097e+001	1.488112e+002
3037532500	-3.040898e+001	1.256480e+002	-5.056110e-001	1.124167e+002	-5.022938e-001	1.124679e+002	-3.925364e+001	1.587879e+002
3060032000	-3.046774e+001	1.304468e+002	-5.119987e-001	1.105926e+002	-5.081863e-001	1.105402e+002	-3.838281e+001	1.571557e+002
3082531500	-3.088975e+001	1.303468e+002	-5.172528e-001	1.086965e+002	-5.146891e-001	1.087234e+002	-3.662641e+001	1.539639e+002
3105031000	-3.101198e+001	1.295004e+002	-5.264794e-001	1.068130e+002	-5.198788e-001	1.068129e+002	-3.617903e+001	1.527248e+002
3127530500	-3.126109e+001	1.313924e+002	-5.309714e-001	1.049910e+002	-5.300733e-001	1.049638e+002	-3.449848e+001	1.533285e+002
3150030000	-3.122859e+001	1.322889e+002	-5.381596e-001	1.031405e+002	-5.337406e-001	1.031349e+002	-3.381998e+001	1.460696e+002
3172529500	-3.111845e+001	1.335264e+002	-5.427366e-001	1.012805e+002	-5.386229e-001	1.012898e+002	-3.301527e+001	1.450120e+002
3195029000	-3.103682e+001	1.353389e+002	-5.505630e-001	9.938384e+001	-5.475713e-001	9.942141e+001	-3.217282e+001	1.421140e+002
3217528500	-3.110045e+001	1.343447e+002	-5.541324e-001	9.753950e+001	-5.545836e-001	9.755715e+001	-3.168709e+001	1.387960e+002
3240028000	-3.116790e+001	1.329466e+002	-5.639942e-001	9.573380e+001	-5.546840e-001	9.574557e+001	-3.100381e+001	1.322748e+002
3262527500	-3.139732e+001	1.327424e+002	-5.675620e-001	9.389287e+001	-5.605247e-001	9.392293e+001	-3.056472e+001	1.292617e+002
3285027000	-3.147825e+001	1.301114e+002	-5.685839e-001	9.205087e+001	-5.651969e-001	9.210311e+001	-3.015487e+001	1.258672e+002
3307526500	-3.183925e+001	1.323331e+002	-5.697554e-001	9.025099e+001	-5.667436e-001	9.022943e+001	-2.980576e+001	1.230120e+002
3330026000	-3.235889e+001	1.332762e+002	-5.742213e-001	8.840377e+001	-5.673861e-001	8.841294e+001	-2.980338e+001	1.199285e+002
3352525500	-3.277180e+001	1.348407e+002	-5.697163e-001	8.658701e+001	-5.636398e-001	8.658124e+001	-2.959220e+001	1.171362e+002
3375025000	-3.336223e+001	1.371367e+002	-5.695233e-001	8.471435e+001	-5.655855e-001	8.471403e+001	-2.939755e+001	1.157246e+002
3397524500	-3.333634e+001	1.402713e+002	-5.680797e-001	8.287256e+001	-5.632793e-001	8.286715e+001	-2.922097e+001	1.140405e+002
