!Agilent Technologies,E5071C,MY46101151,A.11.34
!Date: Mon Sep 17 23:23:37 2018
!Data & Calibration Information:
!Freq	S11:SOLT2(ON)	S21:SOLT2(ON)	S12:SOLT2(ON)	S22:SOLT2(ON)
!PortZ  Port1:50+j0    Port2:50+j0
!Above PortZ is port z conversion or system Z0 setting when saving the data.
!When reading, reference impedance value at option line is always used.
# Hz S dB R 50
100000	1.437703e-001	-1.542821e+002	-7.836862e+001	-1.717043e+002	-7.812917e+001	-1.115446e+001	1.425208e-001	-1.545073e+002
22599500	1.927361e-002	1.773750e+002	-4.966259e+001	8.461788e+001	-4.962862e+001	8.588799e+001	1.948027e-002	1.774450e+002
45099000	1.744502e-002	1.752189e+002	-4.343869e+001	8.468035e+001	-4.349413e+001	8.417986e+001	1.306110e-002	1.753201e+002
67598500	2.198253e-002	1.730506e+002	-4.011607e+001	8.189919e+001	-4.013026e+001	8.253256e+001	9.173211e-003	1.732251e+002
90098000	1.445399e-002	1.708439e+002	-3.765427e+001	8.019360e+001	-3.759760e+001	7.992033e+001	-2.272748e-003	1.710254e+002
112597500	-1.149694e-003	1.685133e+002	-3.574765e+001	7.797155e+001	-3.570716e+001	7.805059e+001	-9.241662e-003	1.687910e+002
135097000	-6.259171e-003	1.662610e+002	-3.413990e+001	7.543986e+001	-3.411421e+001	7.575679e+001	-2.737736e-003	1.665899e+002
157596500	4.261004e-003	1.640701e+002	-3.283091e+001	7.355910e+001	-3.281783e+001	7.339849e+001	-9.648025e-003	1.643998e+002
180096000	1.183098e-003	1.618128e+002	-3.167342e+001	7.123500e+001	-3.170658e+001	7.131051e+001	-1.172127e-002	1.622172e+002
202595500	-7.054802e-003	1.596120e+002	-3.066218e+001	6.921524e+001	-3.065280e+001	6.913003e+001	-1.328332e-002	1.600275e+002
225095000	-6.940488e-003	1.573945e+002	-2.977751e+001	6.702052e+001	-2.978111e+001	6.704628e+001	-1.837369e-002	1.578424e+002
247594500	-2.035479e-002	1.551755e+002	-2.897057e+001	6.482345e+001	-2.896216e+001	6.499179e+001	-2.230405e-002	1.557348e+002
270094000	-2.413089e-002	1.529912e+002	-2.822807e+001	6.275091e+001	-2.822677e+001	6.263565e+001	-2.377082e-002	1.535246e+002
292593500	-2.789245e-002	1.507801e+002	-2.758007e+001	6.058861e+001	-2.756165e+001	6.053041e+001	-3.053948e-002	1.513565e+002
315093000	-2.474182e-002	1.485735e+002	-2.695185e+001	5.848787e+001	-2.695273e+001	5.840372e+001	-3.546841e-002	1.491755e+002
337592500	-3.994730e-002	1.463529e+002	-2.639637e+001	5.625882e+001	-2.638535e+001	5.622877e+001	-4.159984e-002	1.469967e+002
360092000	-4.235553e-002	1.441787e+002	-2.587562e+001	5.424997e+001	-2.585599e+001	5.427094e+001	-4.453272e-002	1.448856e+002
382591500	-4.513407e-002	1.419347e+002	-2.539260e+001	5.221305e+001	-2.537109e+001	5.224260e+001	-4.487684e-002	1.427266e+002
405091000	-5.610892e-002	1.397464e+002	-2.497985e+001	5.061058e+001	-2.498151e+001	5.063260e+001	-6.448452e-002	1.405130e+002
427590500	-6.495383e-002	1.375390e+002	-2.445683e+001	4.954977e+001	-2.443817e+001	4.958308e+001	-7.318593e-002	1.383851e+002
450090000	-7.305718e-002	1.354686e+002	-2.377898e+001	4.725805e+001	-2.378976e+001	4.731036e+001	-8.140240e-002	1.363536e+002
472589500	-6.852790e-002	1.332819e+002	-2.335913e+001	4.399112e+001	-2.334424e+001	4.404364e+001	-7.413175e-002	1.342121e+002
495089000	-7.070972e-002	1.311277e+002	-2.301347e+001	4.163818e+001	-2.301068e+001	4.167470e+001	-7.202125e-002	1.320737e+002
517588500	-6.913022e-002	1.289277e+002	-2.265782e+001	3.933403e+001	-2.264970e+001	3.939034e+001	-7.899979e-002	1.298852e+002
540088000	-7.264048e-002	1.267682e+002	-2.232107e+001	3.707321e+001	-2.229489e+001	3.717158e+001	-7.280632e-002	1.277606e+002
562587500	-7.202679e-002	1.246261e+002	-2.197677e+001	3.498133e+001	-2.197539e+001	3.493624e+001	-7.178676e-002	1.256390e+002
585087000	-7.483747e-002	1.224771e+002	-2.167088e+001	3.274565e+001	-2.167629e+001	3.279207e+001	-8.717256e-002	1.235318e+002
607586500	-9.199632e-002	1.202331e+002	-2.139398e+001	3.053561e+001	-2.138064e+001	3.061531e+001	-9.315518e-002	1.213630e+002
630086000	-9.508243e-002	1.181697e+002	-2.110798e+001	2.845000e+001	-2.109448e+001	2.838907e+001	-9.292760e-002	1.192453e+002
652585500	-9.756874e-002	1.160207e+002	-2.083821e+001	2.622966e+001	-2.081852e+001	2.624182e+001	-9.276741e-002	1.170640e+002
675085000	-8.862553e-002	1.138243e+002	-2.056757e+001	2.407543e+001	-2.055685e+001	2.421133e+001	-1.014717e-001	1.149600e+002
697584500	-9.411055e-002	1.117042e+002	-2.033064e+001	2.201894e+001	-2.032998e+001	2.206090e+001	-1.109748e-001	1.128310e+002
720084000	-1.070740e-001	1.095612e+002	-2.009562e+001	2.003574e+001	-2.007457e+001	2.008000e+001	-1.091860e-001	1.107261e+002
742583500	-1.118682e-001	1.074396e+002	-1.986429e+001	1.801568e+001	-1.985619e+001	1.796142e+001	-1.196161e-001	1.085896e+002
765083000	-1.226888e-001	1.052661e+002	-1.964360e+001	1.591875e+001	-1.962580e+001	1.602048e+001	-1.146127e-001	1.064897e+002
787582500	-1.236531e-001	1.031970e+002	-1.943613e+001	1.419978e+001	-1.942415e+001	1.405189e+001	-1.301764e-001	1.043507e+002
810082000	-1.273848e-001	1.010644e+002	-1.921325e+001	1.237831e+001	-1.922328e+001	1.240789e+001	-1.351452e-001	1.022791e+002
832581500	-1.402278e-001	9.895183e+001	-1.897944e+001	1.062942e+001	-1.896400e+001	1.064665e+001	-1.505983e-001	1.002099e+002
855081000	-1.490168e-001	9.679143e+001	-1.877013e+001	8.583025e+000	-1.876273e+001	8.702557e+000	-1.583297e-001	9.816425e+001
877580500	-1.580739e-001	9.475957e+001	-1.852098e+001	6.986127e+000	-1.851775e+001	7.044865e+000	-1.718638e-001	9.607796e+001
900080000	-1.637482e-001	9.268537e+001	-1.823958e+001	5.044717e+000	-1.823327e+001	5.144450e+000	-1.840626e-001	9.404495e+001
922579500	-1.718469e-001	9.066778e+001	-1.799147e+001	2.878220e+000	-1.798414e+001	3.056268e+000	-1.812031e-001	9.198696e+001
945079000	-1.707411e-001	8.865925e+001	-1.772312e+001	3.291617e-001	-1.773789e+001	4.726409e-001	-1.724758e-001	8.991385e+001
967578500	-1.702861e-001	8.659750e+001	-1.753943e+001	-2.168191e+000	-1.752474e+001	-2.149960e+000	-1.694801e-001	8.779055e+001
990078000	-1.638216e-001	8.446237e+001	-1.738878e+001	-4.472237e+000	-1.738231e+001	-4.357956e+000	-1.733824e-001	8.566611e+001
1012577500	-1.739282e-001	8.234699e+001	-1.724341e+001	-6.696529e+000	-1.721721e+001	-6.501873e+000	-1.671386e-001	8.361574e+001
1035077000	-1.760359e-001	8.027306e+001	-1.710887e+001	-8.766923e+000	-1.708286e+001	-8.535491e+000	-1.735851e-001	8.152229e+001
1057576500	-1.754432e-001	7.821631e+001	-1.694253e+001	-1.068350e+001	-1.693087e+001	-1.056613e+001	-1.875181e-001	7.938320e+001
1080076000	-1.872717e-001	7.614841e+001	-1.678880e+001	-1.264975e+001	-1.676484e+001	-1.260905e+001	-1.823117e-001	7.727416e+001
1102575500	-1.944343e-001	7.411402e+001	-1.662249e+001	-1.457285e+001	-1.660760e+001	-1.451143e+001	-1.961481e-001	7.523144e+001
1125075000	-2.003491e-001	7.204022e+001	-1.645679e+001	-1.656992e+001	-1.645296e+001	-1.645675e+001	-2.104432e-001	7.319493e+001
1147574500	-1.958019e-001	6.994082e+001	-1.629077e+001	-1.865200e+001	-1.628718e+001	-1.851954e+001	-2.209142e-001	7.110110e+001
1170074000	-2.143898e-001	6.789364e+001	-1.614835e+001	-2.055296e+001	-1.613867e+001	-2.049301e+001	-2.246577e-001	6.907825e+001
1192573500	-2.162185e-001	6.582478e+001	-1.598160e+001	-2.269725e+001	-1.597420e+001	-2.257153e+001	-2.334203e-001	6.701672e+001
1215073000	-2.265118e-001	6.381463e+001	-1.583454e+001	-2.467860e+001	-1.583755e+001	-2.456415e+001	-2.405172e-001	6.493912e+001
1237572500	-2.412309e-001	6.173228e+001	-1.572095e+001	-2.670100e+001	-1.569830e+001	-2.658009e+001	-2.404748e-001	6.282621e+001
1260072000	-2.462034e-001	5.972545e+001	-1.557095e+001	-2.869484e+001	-1.555428e+001	-2.862133e+001	-2.509200e-001	6.078531e+001
1282571500	-2.514733e-001	5.767661e+001	-1.544580e+001	-3.072048e+001	-1.544460e+001	-3.067407e+001	-2.619094e-001	5.873016e+001
1305071000	-2.626507e-001	5.564608e+001	-1.532569e+001	-3.253202e+001	-1.531472e+001	-3.251484e+001	-2.755128e-001	5.666226e+001
1327570500	-2.813831e-001	5.354103e+001	-1.520046e+001	-3.424800e+001	-1.517583e+001	-3.425504e+001	-2.763404e-001	5.463803e+001
1350070000	-3.061322e-001	5.161640e+001	-1.501295e+001	-3.582554e+001	-1.499088e+001	-3.586514e+001	-2.992318e-001	5.257723e+001
1372569500	-3.009171e-001	4.967847e+001	-1.481260e+001	-3.784461e+001	-1.479839e+001	-3.786596e+001	-3.185188e-001	5.062432e+001
1395069000	-3.102132e-001	4.765016e+001	-1.464771e+001	-4.011161e+001	-1.463101e+001	-3.993871e+001	-3.230171e-001	4.865444e+001
1417568500	-3.167994e-001	4.562269e+001	-1.449618e+001	-4.234138e+001	-1.449090e+001	-4.227535e+001	-3.318995e-001	4.654140e+001
1440068000	-3.093059e-001	4.362355e+001	-1.435012e+001	-4.445053e+001	-1.434206e+001	-4.443242e+001	-3.270873e-001	4.451339e+001
1462567500	-3.212913e-001	4.153738e+001	-1.423044e+001	-4.665995e+001	-1.421663e+001	-4.665774e+001	-3.299461e-001	4.241070e+001
1485067000	-3.214968e-001	3.944062e+001	-1.410550e+001	-4.898770e+001	-1.407821e+001	-4.879312e+001	-3.353849e-001	4.045225e+001
1507566500	-3.225200e-001	3.747185e+001	-1.398342e+001	-5.102997e+001	-1.395795e+001	-5.106816e+001	-3.348454e-001	3.840986e+001
1530066000	-3.301261e-001	3.541002e+001	-1.388870e+001	-5.323672e+001	-1.385749e+001	-5.329353e+001	-3.420973e-001	3.632349e+001
1552565500	-3.331260e-001	3.328338e+001	-1.378978e+001	-5.538016e+001	-1.377944e+001	-5.537781e+001	-3.470729e-001	3.416420e+001
1575065000	-3.398881e-001	3.120513e+001	-1.371413e+001	-5.735192e+001	-1.371666e+001	-5.735028e+001	-3.556198e-001	3.215276e+001
1597564500	-3.638728e-001	2.918194e+001	-1.363150e+001	-5.909385e+001	-1.362925e+001	-5.899657e+001	-3.743398e-001	3.009515e+001
1620064000	-3.869312e-001	2.714732e+001	-1.350343e+001	-6.072896e+001	-1.349922e+001	-6.059641e+001	-3.990529e-001	2.803916e+001
1642563500	-4.112964e-001	2.523317e+001	-1.333789e+001	-6.264042e+001	-1.331876e+001	-6.260596e+001	-4.127096e-001	2.604005e+001
1665063000	-4.135789e-001	2.321400e+001	-1.322856e+001	-6.482169e+001	-1.320872e+001	-6.474703e+001	-4.144117e-001	2.392794e+001
1687562500	-4.209393e-001	2.119390e+001	-1.309739e+001	-6.658459e+001	-1.309005e+001	-6.654879e+001	-4.366142e-001	2.185509e+001
1710062000	-4.327757e-001	1.917125e+001	-1.295685e+001	-6.862782e+001	-1.296076e+001	-6.869665e+001	-4.472694e-001	1.979978e+001
1732561500	-4.437382e-001	1.709184e+001	-1.284761e+001	-7.070562e+001	-1.284574e+001	-7.067575e+001	-4.578034e-001	1.777161e+001
1755061000	-4.580320e-001	1.514982e+001	-1.269058e+001	-7.268125e+001	-1.269205e+001	-7.262621e+001	-4.773615e-001	1.577104e+001
1777560500	-4.719937e-001	1.312874e+001	-1.257468e+001	-7.484175e+001	-1.255582e+001	-7.492167e+001	-4.777222e-001	1.373627e+001
1800060000	-4.742717e-001	1.109571e+001	-1.245920e+001	-7.718883e+001	-1.245623e+001	-7.711218e+001	-4.735805e-001	1.166853e+001
1822559500	-4.967974e-001	9.053959e+000	-1.237998e+001	-7.915645e+001	-1.237446e+001	-7.906545e+001	-4.861563e-001	9.575256e+000
1845059000	-5.058050e-001	6.957691e+000	-1.226900e+001	-8.122001e+001	-1.226928e+001	-8.108590e+001	-5.061941e-001	7.553793e+000
1867558500	-5.242116e-001	4.870953e+000	-1.218092e+001	-8.328901e+001	-1.217072e+001	-8.326956e+001	-5.151773e-001	5.359079e+000
1890058000	-5.388425e-001	2.760441e+000	-1.207314e+001	-8.523577e+001	-1.207863e+001	-8.516188e+001	-5.285992e-001	3.280457e+000
1912557500	-5.604566e-001	7.444971e-001	-1.199771e+001	-8.707330e+001	-1.198914e+001	-8.712672e+001	-5.559517e-001	1.090804e+000
1935057000	-5.880173e-001	-1.347887e+000	-1.188902e+001	-8.902815e+001	-1.188607e+001	-8.892058e+001	-5.744295e-001	-1.030975e+000
1957556500	-5.904756e-001	-3.366872e+000	-1.174068e+001	-9.095423e+001	-1.174517e+001	-9.090474e+001	-5.947333e-001	-3.080254e+000
1980056000	-6.179543e-001	-5.465104e+000	-1.163024e+001	-9.286496e+001	-1.162305e+001	-9.282838e+001	-6.226142e-001	-5.149787e+000
2002555500	-6.282320e-001	-7.449730e+000	-1.149431e+001	-9.486997e+001	-1.149397e+001	-9.491066e+001	-6.443338e-001	-7.183148e+000
2025055000	-6.550569e-001	-9.552191e+000	-1.138332e+001	-9.710213e+001	-1.134817e+001	-9.698372e+001	-6.611893e-001	-9.253497e+000
2047554500	-6.569413e-001	-1.161554e+001	-1.123941e+001	-9.924886e+001	-1.123347e+001	-9.912180e+001	-6.852600e-001	-1.127545e+001
2070054000	-6.684033e-001	-1.369335e+001	-1.113712e+001	-1.012817e+002	-1.113415e+001	-1.012280e+002	-7.164364e-001	-1.330222e+001
2092553500	-6.876768e-001	-1.581157e+001	-1.102352e+001	-1.034248e+002	-1.099732e+001	-1.033335e+002	-7.228095e-001	-1.528123e+001
2115053000	-7.082220e-001	-1.786292e+001	-1.089183e+001	-1.055638e+002	-1.087813e+001	-1.055118e+002	-7.391930e-001	-1.727948e+001
2137552500	-7.303310e-001	-2.000298e+001	-1.078101e+001	-1.077894e+002	-1.078786e+001	-1.077298e+002	-7.449412e-001	-1.940544e+001
2160052000	-7.492135e-001	-2.219323e+001	-1.069929e+001	-1.101087e+002	-1.068849e+001	-1.099178e+002	-7.525408e-001	-2.156153e+001
2182551500	-7.711305e-001	-2.430686e+001	-1.058955e+001	-1.123033e+002	-1.056717e+001	-1.122288e+002	-7.440345e-001	-2.375382e+001
2205051000	-7.901823e-001	-2.638247e+001	-1.049450e+001	-1.144385e+002	-1.048817e+001	-1.144226e+002	-7.640357e-001	-2.590025e+001
2227550500	-8.133654e-001	-2.857855e+001	-1.040782e+001	-1.165717e+002	-1.039446e+001	-1.165584e+002	-7.842929e-001	-2.813892e+001
2250050000	-8.322475e-001	-3.065212e+001	-1.029366e+001	-1.187023e+002	-1.030172e+001	-1.187747e+002	-8.060553e-001	-3.037288e+001
2272549500	-8.564353e-001	-3.278827e+001	-1.021812e+001	-1.208325e+002	-1.021024e+001	-1.208269e+002	-8.254947e-001	-3.252685e+001
2295049000	-8.686205e-001	-3.490144e+001	-1.012387e+001	-1.229187e+002	-1.011866e+001	-1.228649e+002	-8.570336e-001	-3.474432e+001
2317548500	-8.794862e-001	-3.713646e+001	-1.001763e+001	-1.251391e+002	-1.002585e+001	-1.250392e+002	-8.766127e-001	-3.693428e+001
2340048000	-9.058451e-001	-3.931863e+001	-9.949857e+000	-1.271265e+002	-9.938865e+000	-1.270368e+002	-9.179951e-001	-3.911975e+001
2362547500	-9.289308e-001	-4.149222e+001	-9.869884e+000	-1.291478e+002	-9.857566e+000	-1.291486e+002	-9.615744e-001	-4.132884e+001
2385047000	-9.517536e-001	-4.380220e+001	-9.762343e+000	-1.312039e+002	-9.761813e+000	-1.310684e+002	-9.964335e-001	-4.345718e+001
2407546500	-1.002730e+000	-4.598430e+001	-9.668455e+000	-1.330647e+002	-9.659463e+000	-1.329805e+002	-1.039451e+000	-4.555658e+001
2430046000	-1.044214e+000	-4.810892e+001	-9.523922e+000	-1.350992e+002	-9.500813e+000	-1.350112e+002	-1.061381e+000	-4.763543e+001
2452545500	-1.079634e+000	-5.034077e+001	-9.397825e+000	-1.373493e+002	-9.395203e+000	-1.372614e+002	-1.090551e+000	-4.974830e+001
2475045000	-1.101059e+000	-5.243968e+001	-9.266579e+000	-1.395596e+002	-9.267200e+000	-1.394551e+002	-1.107497e+000	-5.185330e+001
2497544500	-1.114812e+000	-5.466288e+001	-9.118802e+000	-1.418843e+002	-9.143819e+000	-1.417756e+002	-1.131459e+000	-5.398164e+001
2520044000	-1.152483e+000	-5.683889e+001	-9.012054e+000	-1.442220e+002	-9.000992e+000	-1.441655e+002	-1.141562e+000	-5.616997e+001
2542543500	-1.172589e+000	-5.903960e+001	-8.909572e+000	-1.466052e+002	-8.901246e+000	-1.465181e+002	-1.152633e+000	-5.838274e+001
2565043000	-1.181785e+000	-6.127153e+001	-8.801427e+000	-1.489715e+002	-8.806241e+000	-1.489062e+002	-1.174060e+000	-6.059695e+001
2587542500	-1.217428e+000	-6.354967e+001	-8.717262e+000	-1.513425e+002	-8.718461e+000	-1.511996e+002	-1.196962e+000	-6.278113e+001
2610042000	-1.237999e+000	-6.578011e+001	-8.629144e+000	-1.537693e+002	-8.627183e+000	-1.536818e+002	-1.219546e+000	-6.515433e+001
2632541500	-1.260847e+000	-6.804149e+001	-8.539519e+000	-1.561083e+002	-8.538258e+000	-1.560462e+002	-1.242660e+000	-6.739873e+001
2655041000	-1.286864e+000	-7.031460e+001	-8.468039e+000	-1.585090e+002	-8.460881e+000	-1.584879e+002	-1.276579e+000	-6.968055e+001
2677540500	-1.302417e+000	-7.262997e+001	-8.383691e+000	-1.609155e+002	-8.382058e+000	-1.608915e+002	-1.294151e+000	-7.200987e+001
2700040000	-1.329803e+000	-7.505359e+001	-8.315922e+000	-1.633686e+002	-8.297622e+000	-1.632763e+002	-1.313827e+000	-7.439434e+001
2722539500	-1.346532e+000	-7.737722e+001	-8.260139e+000	-1.657096e+002	-8.263243e+000	-1.655849e+002	-1.356557e+000	-7.669313e+001
2745039000	-1.382771e+000	-7.975958e+001	-8.194329e+000	-1.679426e+002	-8.192440e+000	-1.678222e+002	-1.385877e+000	-7.901024e+001
2767538500	-1.424721e+000	-8.219809e+001	-8.125343e+000	-1.701342e+002	-8.128397e+000	-1.700167e+002	-1.428227e+000	-8.130782e+001
2790038000	-1.461469e+000	-8.454356e+001	-8.037674e+000	-1.722538e+002	-8.046720e+000	-1.722469e+002	-1.470359e+000	-8.366053e+001
2812537500	-1.504529e+000	-8.689650e+001	-7.969024e+000	-1.744465e+002	-7.967056e+000	-1.744156e+002	-1.508147e+000	-8.592729e+001
2835037000	-1.553533e+000	-8.928506e+001	-7.885116e+000	-1.766257e+002	-7.873650e+000	-1.766491e+002	-1.548948e+000	-8.822996e+001
2857536500	-1.588508e+000	-9.168112e+001	-7.761233e+000	-1.788227e+002	-7.771239e+000	-1.787017e+002	-1.592936e+000	-9.039543e+001
2880036000	-1.638490e+000	-9.403860e+001	-7.669219e+000	1.787789e+002	-7.658004e+000	1.789045e+002	-1.631809e+000	-9.259493e+001
2902535500	-1.683872e+000	-9.633294e+001	-7.569882e+000	1.765172e+002	-7.562428e+000	1.765379e+002	-1.665835e+000	-9.490614e+001
2925035000	-1.719183e+000	-9.874693e+001	-7.473123e+000	1.740416e+002	-7.462310e+000	1.740911e+002	-1.698895e+000	-9.728725e+001
2947534500	-1.760377e+000	-1.010533e+002	-7.357356e+000	1.716264e+002	-7.339308e+000	1.716777e+002	-1.726914e+000	-9.948950e+001
2970034000	-1.776026e+000	-1.033729e+002	-7.234528e+000	1.690333e+002	-7.243808e+000	1.690781e+002	-1.746873e+000	-1.017556e+002
2992533500	-1.803469e+000	-1.056726e+002	-7.161091e+000	1.664989e+002	-7.162384e+000	1.665214e+002	-1.758561e+000	-1.040771e+002
3015033000	-1.820728e+000	-1.081037e+002	-7.079182e+000	1.638201e+002	-7.084354e+000	1.639495e+002	-1.785985e+000	-1.064071e+002
3037532500	-1.834894e+000	-1.106569e+002	-7.008186e+000	1.612404e+002	-7.003884e+000	1.613002e+002	-1.796321e+000	-1.089119e+002
3060032000	-1.875370e+000	-1.130965e+002	-6.966291e+000	1.586797e+002	-6.937953e+000	1.587821e+002	-1.826976e+000	-1.112408e+002
3082531500	-1.895053e+000	-1.155988e+002	-6.895014e+000	1.561541e+002	-6.894064e+000	1.562321e+002	-1.854452e+000	-1.136990e+002
3105031000	-1.919455e+000	-1.180758e+002	-6.827815e+000	1.536266e+002	-6.823936e+000	1.536295e+002	-1.882083e+000	-1.161236e+002
3127530500	-1.955023e+000	-1.205922e+002	-6.782467e+000	1.511241e+002	-6.790561e+000	1.510825e+002	-1.921351e+000	-1.185861e+002
3150030000	-2.001670e+000	-1.231971e+002	-6.746556e+000	1.486122e+002	-6.739697e+000	1.486695e+002	-1.954121e+000	-1.210888e+002
3172529500	-2.031478e+000	-1.258068e+002	-6.692768e+000	1.460993e+002	-6.696358e+000	1.461554e+002	-1.994839e+000	-1.235180e+002
3195029000	-2.056537e+000	-1.284120e+002	-6.653288e+000	1.435862e+002	-6.645888e+000	1.436762e+002	-2.029355e+000	-1.260155e+002
3217528500	-2.103263e+000	-1.309586e+002	-6.589284e+000	1.412614e+002	-6.594676e+000	1.412615e+002	-2.076809e+000	-1.284810e+002
3240028000	-2.149322e+000	-1.336147e+002	-6.540772e+000	1.388844e+002	-6.539570e+000	1.389480e+002	-2.123678e+000	-1.309302e+002
3262527500	-2.207010e+000	-1.361971e+002	-6.470384e+000	1.365024e+002	-6.470900e+000	1.365631e+002	-2.177506e+000	-1.333800e+002
3285027000	-2.248055e+000	-1.387036e+002	-6.399830e+000	1.341760e+002	-6.404845e+000	1.341725e+002	-2.228328e+000	-1.357509e+002
3307526500	-2.293748e+000	-1.413019e+002	-6.325637e+000	1.316721e+002	-6.327381e+000	1.316895e+002	-2.267109e+000	-1.381548e+002
3330026000	-2.338695e+000	-1.438093e+002	-6.240055e+000	1.291644e+002	-6.243350e+000	1.291752e+002	-2.307315e+000	-1.405054e+002
3352525500	-2.376171e+000	-1.463277e+002	-6.164655e+000	1.265762e+002	-6.168031e+000	1.266141e+002	-2.341546e+000	-1.428333e+002
3375025000	-2.411356e+000	-1.488862e+002	-6.095489e+000	1.239389e+002	-6.098255e+000	1.239661e+002	-2.378395e+000	-1.452042e+002
3397524500	-2.439920e+000	-1.514701e+002	-6.036820e+000	1.212524e+002	-6.029743e+000	1.212649e+002	-2.398977e+000	-1.476095e+002
