!Agilent Technologies,E5071C,MY46101151,A.11.34
!Date: Mon Sep 17 22:00:28 2018
!Data & Calibration Information:
!Freq	S22:NONE(--)
!PortZ  Port2:50+j0
!Above PortZ is port z conversion or system Z0 setting when saving the data.
!When reading, reference impedance value at option line is always used.
# Hz S dB R 50
100000	9.365032e-002	-1.390973e-001
22599500	7.351549e-002	-2.597115e+001
45099000	4.537819e-002	-5.188414e+001
67598500	-2.164562e-004	-7.768488e+001
90098000	-5.544102e-002	-1.036005e+002
112597500	-1.133929e-001	-1.295269e+002
135097000	-1.657834e-001	-1.553934e+002
157596500	-2.119976e-001	1.788636e+002
180096000	-2.333347e-001	1.532669e+002
202595500	-2.342527e-001	1.278463e+002
225095000	-2.436789e-001	1.023941e+002
247594500	-2.364298e-001	7.718942e+001
270094000	-2.291712e-001	5.190940e+001
292593500	-2.289766e-001	2.646356e+001
315093000	-2.353903e-001	8.911535e-001
337592500	-2.496145e-001	-2.492158e+001
360092000	-2.677445e-001	-5.090192e+001
382591500	-2.922727e-001	-7.703737e+001
405091000	-3.155032e-001	-1.031983e+002
427590500	-3.354090e-001	-1.293145e+002
450090000	-3.540897e-001	-1.553000e+002
472589500	-3.675165e-001	1.789967e+002
495089000	-3.820129e-001	1.533962e+002
517588500	-3.986617e-001	1.280611e+002
540088000	-4.056612e-001	1.028608e+002
562587500	-4.144165e-001	7.778901e+001
585087000	-4.132753e-001	5.271173e+001
607586500	-4.172474e-001	2.759097e+001
630086000	-4.161584e-001	2.235822e+000
652585500	-4.089053e-001	-2.331250e+001
675085000	-4.003416e-001	-4.909909e+001
697584500	-3.958921e-001	-7.506243e+001
720084000	-3.976935e-001	-1.011959e+002
742583500	-4.158436e-001	-1.273644e+002
765083000	-4.416234e-001	-1.534315e+002
787582500	-4.885824e-001	-1.794888e+002
810082000	-5.259624e-001	1.546418e+002
832581500	-5.603378e-001	1.290491e+002
855081000	-5.885056e-001	1.036260e+002
877580500	-5.927542e-001	7.836859e+001
900080000	-5.835091e-001	5.324278e+001
922579500	-5.596137e-001	2.816748e+001
945079000	-5.236463e-001	3.061746e+000
967578500	-4.843285e-001	-2.214337e+001
990078000	-4.534894e-001	-4.751181e+001
1012577500	-4.459517e-001	-7.314106e+001
1035077000	-4.583395e-001	-9.895897e+001
1057576500	-4.963608e-001	-1.250043e+002
1080076000	-5.615777e-001	-1.512207e+002
1102575500	-6.173305e-001	-1.774510e+002
1125075000	-6.662959e-001	1.562715e+002
1147574500	-7.122611e-001	1.301137e+002
1170074000	-7.370930e-001	1.042934e+002
1192573500	-7.234416e-001	7.880612e+001
1215073000	-6.784289e-001	5.352878e+001
1237572500	-6.247556e-001	2.852077e+001
1260072000	-5.696601e-001	3.683537e+000
1282571500	-5.247787e-001	-2.110937e+001
1305071000	-5.041342e-001	-4.602525e+001
1327570500	-5.107150e-001	-7.116436e+001
1350070000	-5.466564e-001	-9.662073e+001
1372569500	-6.065809e-001	-1.224482e+002
1395069000	-6.818690e-001	-1.486467e+002
1417568500	-7.467222e-001	-1.751523e+002
1440068000	-7.988620e-001	1.581922e+002
1462567500	-8.178232e-001	1.315312e+002
1485067000	-8.031858e-001	1.051168e+002
1507566500	-7.693850e-001	7.908663e+001
1530066000	-7.184036e-001	5.348044e+001
1552565500	-6.704788e-001	2.829125e+001
1575065000	-6.282967e-001	3.520720e+000
1597564500	-6.109806e-001	-2.103313e+001
1620064000	-6.114601e-001	-4.552981e+001
1642563500	-6.355931e-001	-7.014293e+001
1665063000	-6.720465e-001	-9.504469e+001
1687562500	-7.209818e-001	-1.203514e+002
1710062000	-7.679435e-001	-1.461905e+002
1732561500	-8.002441e-001	-1.725313e+002
1755061000	-8.261261e-001	1.607629e+002
1777560500	-8.365887e-001	1.338243e+002
1800060000	-8.338409e-001	1.068800e+002
1822559500	-8.126232e-001	8.023927e+001
1845059000	-7.925923e-001	5.406377e+001
1867558500	-7.700640e-001	2.838814e+001
1890058000	-7.573475e-001	3.297833e+000
1912557500	-7.531084e-001	-2.139192e+001
1935057000	-7.499401e-001	-4.578098e+001
1957556500	-7.535317e-001	-7.011437e+001
1980056000	-7.623886e-001	-9.459937e+001
2002555500	-7.766591e-001	-1.193415e+002
2025055000	-7.914151e-001	-1.446502e+002
2047554500	-8.165647e-001	-1.704864e+002
2070054000	-8.403168e-001	1.631696e+002
2092553500	-8.714335e-001	1.363208e+002
2115053000	-8.989618e-001	1.092678e+002
2137552500	-9.205096e-001	8.223236e+001
2160052000	-9.242874e-001	5.553973e+001
2182551500	-9.142545e-001	2.929946e+001
2205051000	-8.943173e-001	3.663499e+000
2227550500	-8.675294e-001	-2.139537e+001
2250050000	-8.356152e-001	-4.600288e+001
2272549500	-8.099239e-001	-7.035127e+001
2295049000	-7.929936e-001	-9.459099e+001
2317548500	-7.940472e-001	-1.189895e+002
2340048000	-8.181997e-001	-1.437529e+002
2362547500	-8.591452e-001	-1.690237e+002
2385047000	-9.093373e-001	1.651422e+002
2407546500	-9.670502e-001	1.386835e+002
2430046000	-1.016973e+000	1.117522e+002
2452545500	-1.045699e+000	8.459595e+001
2475045000	-1.044824e+000	5.751846e+001
2497544500	-1.021585e+000	3.073207e+001
2520044000	-9.743242e-001	4.522355e+000
2542543500	-9.231070e-001	-2.106985e+001
2565043000	-8.781660e-001	-4.608554e+001
2587542500	-8.498819e-001	-7.064383e+001
2610042000	-8.442146e-001	-9.489305e+001
2632541500	-8.591934e-001	-1.191556e+002
2655041000	-9.000535e-001	-1.435857e+002
2677540500	-9.462453e-001	-1.683883e+002
2700040000	-1.004294e+000	1.662993e+002
2722539500	-1.052044e+000	1.403329e+002
2745039000	-1.086126e+000	1.137970e+002
2767538500	-1.097988e+000	8.690096e+001
2790038000	-1.083727e+000	5.983851e+001
2812537500	-1.048149e+000	3.292722e+001
2835037000	-1.008948e+000	6.462437e+000
2857536500	-9.717846e-001	-1.954515e+001
2880036000	-9.518617e-001	-4.503933e+001
2902535500	-9.429030e-001	-7.003972e+001
2925035000	-9.590262e-001	-9.463869e+001
2947534500	-9.792472e-001	-1.191572e+002
2970034000	-1.015362e+000	-1.437552e+002
2992533500	-1.052121e+000	-1.685534e+002
3015033000	-1.087347e+000	1.661962e+002
3037532500	-1.109601e+000	1.404839e+002
3060032000	-1.115626e+000	1.143231e+002
3082531500	-1.106783e+000	8.782865e+001
3105031000	-1.087147e+000	6.116445e+001
3127530500	-1.070692e+000	3.443001e+001
3150030000	-1.056337e+000	7.996910e+000
3172529500	-1.042996e+000	-1.816115e+001
3195029000	-1.044165e+000	-4.394619e+001
3217528500	-1.049895e+000	-6.927351e+001
3240028000	-1.065439e+000	-9.436602e+001
3262527500	-1.089472e+000	-1.192510e+002
3285027000	-1.110406e+000	-1.441127e+002
3307526500	-1.125116e+000	-1.690963e+002
3330026000	-1.132999e+000	1.657541e+002
3352525500	-1.132977e+000	1.403378e+002
3375025000	-1.126555e+000	1.146168e+002
3397524500	-1.120427e+000	8.863300e+001
3420024000	-1.113522e+000	6.252871e+001
3442523500	-1.102951e+000	3.635752e+001
3465023000	-1.095870e+000	1.022829e+001
3487522500	-1.098465e+000	-1.576947e+001
3510022000	-1.102218e+000	-4.156165e+001
3532521500	-1.117465e+000	-6.714854e+001
3555021000	-1.130342e+000	-9.260368e+001
3577520500	-1.142992e+000	-1.179370e+002
3600020000	-1.158024e+000	-1.432829e+002
3622519500	-1.171849e+000	-1.686896e+002
3645019000	-1.187694e+000	1.657821e+002
3667518500	-1.199184e+000	1.401010e+002
3690018000	-1.203858e+000	1.142798e+002
3712517500	-1.197982e+000	8.838186e+001
3735017000	-1.187538e+000	6.246521e+001
3757516500	-1.168813e+000	3.663071e+001
3780016000	-1.148552e+000	1.095245e+001
3802515500	-1.129457e+000	-1.454358e+001
3825015000	-1.115313e+000	-3.989773e+001
3847514500	-1.106302e+000	-6.513732e+001
3870014000	-1.118313e+000	-9.036312e+001
3892513500	-1.137846e+000	-1.156706e+002
3915013000	-1.181115e+000	-1.411500e+002
3937512500	-1.227103e+000	-1.668821e+002
3960012000	-1.274394e+000	1.671109e+002
3982511500	-1.309845e+000	1.408868e+002
4005011000	-1.324461e+000	1.146108e+002
4027510500	-1.307844e+000	8.838544e+001
4050010000	-1.276679e+000	6.236670e+001
4072509500	-1.221480e+000	3.670107e+001
4095009000	-1.156690e+000	1.137910e+001
4117508500	-1.097678e+000	-1.352598e+001
4140008000	-1.057765e+000	-3.818826e+001
4162507500	-1.042704e+000	-6.271665e+001
4185007000	-1.065545e+000	-8.734304e+001
4207506500	-1.123598e+000	-1.122189e+002
4230006000	-1.206269e+000	-1.375655e+002
4252505500	-1.300306e+000	-1.634142e+002
4275005000	-1.382588e+000	1.701709e+002
4297504500	-1.440080e+000	1.433956e+002
4320004000	-1.452219e+000	1.163909e+002
4342503500	-1.421930e+000	8.947905e+001
4365003000	-1.344953e+000	6.296629e+001
4387502500	-1.248178e+000	3.707848e+001
4410002000	-1.151787e+000	1.181002e+001
4432501500	-1.077975e+000	-1.284769e+001
4455001000	-1.036270e+000	-3.706455e+001
4477500500	-1.040898e+000	-6.112539e+001
4500000000	-1.080319e+000	-8.520818e+001
